(1728571438.958533) vcan0 13F#000000050000001F
(1728571438.958540) vcan0 164#0000C01AA9000030
(1728571438.958543) vcan0 17C#0000000010000012
(1728571438.958545) vcan0 18E#00005C
(1728571438.960949) vcan0 039#0039
(1728571438.961008) vcan0 183#0000000C0000101E
(1728571438.961011) vcan0 143#6B6B00D1
(1728571438.961281) vcan0 244#0000000157
(1728571438.965534) vcan0 095#800007F400000008
(1728571438.965540) vcan0 166#D0320018
(1728571438.966799) vcan0 158#0000000000000019
(1728571438.966864) vcan0 161#000005500108001C
(1728571438.966867) vcan0 191#010090A1410003
(1728571438.966869) vcan0 133#00000000A7
(1728571438.966871) vcan0 136#000200000000002A
(1728571438.966873) vcan0 13A#0000000000000028
(1728571438.970362) vcan0 13F#000000050000002E
(1728571438.971360) vcan0 164#0000C01AA8000004
(1728571438.971365) vcan0 17C#0000000010000021
(1728571438.971367) vcan0 18E#00006B
(1728571438.971369) vcan0 1CF#80050000001E
(1728571438.971371) vcan0 1DC#0200001B
(1728571438.971373) vcan0 183#0000001000001028
(1728571438.971374) vcan0 143#6B6B00E0
(1728571438.976626) vcan0 244#00000001B8
(1728571438.978618) vcan0 095#800007F400000017
(1728571438.978816) vcan0 1A4#000000080000003E
(1728571438.978819) vcan0 1AA#7FFF00000000683E
(1728571438.978821) vcan0 1B0#000F0000000175
(1728571438.978822) vcan0 1D0#000000000000000A
(1728571438.978824) vcan0 039#000C
(1728571438.978826) vcan0 166#D0320027
(1728571438.978828) vcan0 158#0000000000000028
(1728571438.978830) vcan0 161#000005500108002B
(1728571438.978834) vcan0 191#010090A1410012
(1728571438.978836) vcan0 133#00000000B6
(1728571438.978839) vcan0 136#0002000000000039
(1728571438.978842) vcan0 13A#0000000000000037
(1728571438.978844) vcan0 13F#000000050000003D
(1728571438.978846) vcan0 164#0000C01AA8000013
(1728571438.978848) vcan0 17C#0000000010000030
(1728571438.978850) vcan0 18E#00007A
(1728571438.978853) vcan0 294#040B0002CF5A003B
(1728571438.978855) vcan0 21E#03E8374522063E
(1728571438.980255) vcan0 183#0000001300001034
(1728571438.980265) vcan0 143#6B6B00FF
(1728571438.981895) vcan0 095#800007F800000022
(1728571438.992750) vcan0 244#0000000176
(1728571438.993559) vcan0 166#D0320036
(1728571438.993966) vcan0 158#0000000000000037
(1728571438.993970) vcan0 161#000005500108003A
(1728571438.993972) vcan0 191#010090A1410021
(1728571438.993974) vcan0 133#0000000089
(1728571438.993976) vcan0 136#000200000000000C
(1728571438.993979) vcan0 13A#000000000000000A
(1728571438.993981) vcan0 13F#0000000500000000
(1728571438.994729) vcan0 164#0000C01AA8000022
(1728571438.994734) vcan0 17C#0000000010000003
(1728571438.994736) vcan0 18E#00004D
(1728571438.994738) vcan0 1CF#80050000002D
(1728571438.994740) vcan0 1DC#0200002A
(1728571438.994743) vcan0 305#8035
(1728571438.994746) vcan0 183#0000000E0000100D
(1728571438.994750) vcan0 143#6B6B00C2
(1728571438.994753) vcan0 333#0000000000003C
(1728571438.994756) vcan0 095#800007F800000031
(1728571438.994759) vcan0 1A4#0000000800000001
(1728571438.994762) vcan0 1AA#7FFF000000006801
(1728571438.994765) vcan0 1B0#000F0000000148
(1728571438.994931) vcan0 1D0#000000000000000A
(1728571438.995219) vcan0 039#001B
(1728571438.995228) vcan0 166#D0320009
(1728571438.996419) vcan0 158#000000000000000A
(1728571438.996481) vcan0 161#000005500108000D
(1728571438.996485) vcan0 191#010090A1410030
(1728571438.996486) vcan0 133#0000000098
(1728571438.996488) vcan0 136#000200000000001B
(1728571438.997762) vcan0 13A#0000000000000019
(1728571438.997769) vcan0 13F#000000050000001F
(1728571438.997771) vcan0 164#0000C01AA8000031
(1728571438.997773) vcan0 17C#0000000010000012
(1728571438.997776) vcan0 18E#00005C
(1728571439.000204) vcan0 183#0000000A00001010
(1728571439.000269) vcan0 143#6B6B00D1
(1728571439.002650) vcan0 095#800007F800000004
(1728571439.006831) vcan0 166#D0320018
(1728571439.006900) vcan0 158#0000000000000019
(1728571439.006903) vcan0 161#000005500108001C
(1728571439.006905) vcan0 191#010090A1410003
(1728571439.006907) vcan0 133#00000000A7
(1728571439.006909) vcan0 136#000200000000002A
(1728571439.006911) vcan0 13A#0000000000000028
(1728571439.008704) vcan0 244#0000000188
(1728571439.008845) vcan0 13F#000000050000002E
(1728571439.008906) vcan0 164#0000C01AA8000004
(1728571439.008909) vcan0 039#002A
(1728571439.008911) vcan0 17C#0000000010000021
(1728571439.008913) vcan0 18E#00006B
(1728571439.008915) vcan0 1CF#80050000003C
(1728571439.008917) vcan0 1DC#02000039
(1728571439.008919) vcan0 320#000030
(1728571439.008921) vcan0 324#7465000000000E38
(1728571439.008923) vcan0 37C#FD00FD00097F0038
(1728571439.012739) vcan0 183#0000000700001022
(1728571439.012993) vcan0 143#6B6B00E0
(1728571439.013183) vcan0 095#800007F800000013
(1728571439.013237) vcan0 1A4#0000000800000010
(1728571439.013240) vcan0 1AA#7FFF000000006810
(1728571439.013242) vcan0 1B0#000F0000000157
(1728571439.013244) vcan0 1D0#000000000000000A
(1728571439.014919) vcan0 166#D0320027
(1728571439.017256) vcan0 158#0000000000000028
(1728571439.017319) vcan0 161#000005500108002B
(1728571439.017323) vcan0 191#010090A1410012
(1728571439.017325) vcan0 133#00000000B6
(1728571439.017327) vcan0 136#0002000000000039
(1728571439.017329) vcan0 13A#0000000000000037
(1728571439.017331) vcan0 13F#000000050000003D
(1728571439.017333) vcan0 164#0000C01AA8000013
(1728571439.019396) vcan0 17C#0000000010000030
(1728571439.019486) vcan0 18E#00007A
(1728571439.019489) vcan0 294#040B0002CF5A000E
(1728571439.019491) vcan0 21E#03E83745220601
(1728571439.019493) vcan0 183#0000000500001033
(1728571439.020266) vcan0 244#0000000112
(1728571439.020731) vcan0 143#6B6B00FF
(1728571439.023594) vcan0 039#0039
(1728571439.023602) vcan0 095#800007F800000022
(1728571439.025315) vcan0 166#D0320036
(1728571439.026586) vcan0 158#0000000000000037
(1728571439.026655) vcan0 161#000005500108003A
(1728571439.026658) vcan0 191#010090A1410021
(1728571439.026660) vcan0 164#0000C01AA8000022
(1728571439.026662) vcan0 133#0000000089
(1728571439.027920) vcan0 136#000200000000000C
(1728571439.028179) vcan0 13A#000000000000000A
(1728571439.028183) vcan0 13F#0000000500000000
(1728571439.028185) vcan0 17C#0000000010000003
(1728571439.028187) vcan0 18E#00004D
(1728571439.028189) vcan0 1CF#80050000000F
(1728571439.028191) vcan0 1DC#0200000C
(1728571439.029737) vcan0 183#0000000B00001000
(1728571439.029798) vcan0 143#6B6B00C2
(1728571439.031291) vcan0 244#0000000108
(1728571439.032514) vcan0 095#800007F800000031
(1728571439.032701) vcan0 1A4#000000080000002F
(1728571439.032704) vcan0 1AA#7FFF000000006720
(1728571439.034721) vcan0 1B0#000F0000000166
(1728571439.034817) vcan0 1D0#000000000000000A
(1728571439.034820) vcan0 166#D0320009
(1728571439.036331) vcan0 158#000000000000000A
(1728571439.036530) vcan0 161#000005500108000D
(1728571439.036534) vcan0 191#010090A1410030
(1728571439.036536) vcan0 039#000C
(1728571439.036538) vcan0 133#0000000098
(1728571439.037722) vcan0 136#000200000000001B
(1728571439.037784) vcan0 13A#0000000000000019
(1728571439.037787) vcan0 13F#000000050000001F
(1728571439.037789) vcan0 164#0000C01AA8000031
(1728571439.037791) vcan0 17C#0000000010000012
(1728571439.037793) vcan0 18E#00005C
(1728571439.039332) vcan0 309#0000000000000084
(1728571439.039340) vcan0 183#0000000800001012
(1728571439.040635) vcan0 143#6B6B00D1
(1728571439.042904) vcan0 095#800007F800000004
(1728571439.042939) vcan0 244#00000001F0
(1728571439.044773) vcan0 166#D0320018
(1728571439.046140) vcan0 158#0000000000000019
(1728571439.046223) vcan0 161#000005500108001C
(1728571439.046236) vcan0 191#010090A1410003
(1728571439.046246) vcan0 133#00000000A7
(1728571439.047553) vcan0 136#000200000000002A
(1728571439.047743) vcan0 13A#0000000000000028
(1728571439.047757) vcan0 13F#000000050000002E
(1728571439.047767) vcan0 164#0000C01AA8000004
(1728571439.047777) vcan0 17C#0000000010000021
(1728571439.047787) vcan0 18E#00006B
(1728571439.047796) vcan0 1CF#80050000001E
(1728571439.049182) vcan0 1DC#0200001B
(1728571439.049438) vcan0 183#0000000D0000102C
(1728571439.050686) vcan0 143#6B6B00E0
(1728571439.050777) vcan0 039#001B
(1728571439.051924) vcan0 095#800007F800000013
(1728571439.053139) vcan0 1A4#000000080000003E
(1728571439.053214) vcan0 1AA#7FFF00000000683E
(1728571439.053226) vcan0 1B0#000F0000000175
(1728571439.053237) vcan0 1D0#000000000000000A
(1728571439.054526) vcan0 166#D0320027
(1728571439.056179) vcan0 158#0000000000000028
(1728571439.056328) vcan0 161#000005500108002B
(1728571439.056412) vcan0 191#010090A1410012
(1728571439.056424) vcan0 133#00000000B6
(1728571439.058738) vcan0 136#0002000000000039
(1728571439.059107) vcan0 13A#0000000000000037
(1728571439.059167) vcan0 13F#000000050000003D
(1728571439.059170) vcan0 164#0000C01AA8000013
(1728571439.059171) vcan0 17C#0000000010000030
(1728571439.059173) vcan0 18E#00007A
(1728571439.059175) vcan0 294#040B0002CF5A001D
(1728571439.059177) vcan0 21E#03E83745220610
(1728571439.059199) vcan0 244#0000000127
(1728571439.060567) vcan0 183#000000090000103F
(1728571439.060626) vcan0 143#6B6B00FF
(1728571439.061945) vcan0 095#800007F800000022
(1728571439.064520) vcan0 166#D0320036
(1728571439.065804) vcan0 039#002A
(1728571439.065873) vcan0 158#0000000000000037
(1728571439.065876) vcan0 161#000005500108003A
(1728571439.067221) vcan0 191#010090A1410021
(1728571439.067231) vcan0 164#0000C01AA8000022
(1728571439.067233) vcan0 133#0000000089
(1728571439.067235) vcan0 136#000200000000000C
(1728571439.067236) vcan0 13A#000000000000000A
(1728571439.067238) vcan0 13F#0000000500000000
(1728571439.068130) vcan0 568#E08BBF047E20FA55
(1728571439.068713) vcan0 17C#0000000010000003
(1728571439.068773) vcan0 18E#00004D
(1728571439.068776) vcan0 1CF#80050000002D
(1728571439.068778) vcan0 1DC#0200002A
(1728571439.070131) vcan0 244#00000001C1
(1728571439.070143) vcan0 183#0000000600001005
(1728571439.070147) vcan0 143#6B6B00C2
(1728571439.071855) vcan0 095#800007F800000031
(1728571439.073173) vcan0 1A4#0000000800000001
(1728571439.073232) vcan0 1AA#7FFF000000006801
(1728571439.073235) vcan0 1B0#000F0000000148
(1728571439.073237) vcan0 1D0#000000000000000A
(1728571439.074516) vcan0 166#D0320009
(1728571439.075913) vcan0 158#000000000000000A
(1728571439.075975) vcan0 161#000005500108000D
(1728571439.077276) vcan0 191#010090A1410030
(1728571439.077341) vcan0 133#0000000098
(1728571439.077344) vcan0 136#000200000000001B
(1728571439.077346) vcan0 13A#0000000000000019
(1728571439.077347) vcan0 13F#000000050000001F
(1728571439.077349) vcan0 164#0000C01AA8000031
(1728571439.078559) vcan0 17C#0000000010000012
(1728571439.078625) vcan0 18E#00005C
(1728571439.079762) vcan0 183#0000000C0000101E
(1728571439.079825) vcan0 143#6B6B00D1
(1728571439.080690) vcan0 244#000000014E
(1728571439.081244) vcan0 039#0039
(1728571439.082614) vcan0 095#800007F800000004
(1728571439.085158) vcan0 166#D0320018
(1728571439.086450) vcan0 158#0000000000000019
(1728571439.086540) vcan0 161#000005500108001C
(1728571439.086543) vcan0 191#010090A1410003
(1728571439.086545) vcan0 133#00000000A7
(1728571439.086547) vcan0 136#000200000000002A
(1728571439.088650) vcan0 13A#0000000000000028
(1728571439.088718) vcan0 13F#000000050000002E
(1728571439.088721) vcan0 164#0000C01AA8000004
(1728571439.088723) vcan0 17C#0000000010000021
(1728571439.088725) vcan0 18E#00006B
(1728571439.088727) vcan0 1CF#80050000003C
(1728571439.088729) vcan0 1DC#02000039
(1728571439.090620) vcan0 183#0000000900001020
(1728571439.090682) vcan0 143#6B6B00E0
(1728571439.090685) vcan0 333#0000000000000F
(1728571439.091834) vcan0 095#800007F800000013
(1728571439.093545) vcan0 1A4#0000000800000010
(1728571439.093613) vcan0 1AA#7FFF000000006711
(1728571439.093616) vcan0 1B0#000F0000000157
(1728571439.093618) vcan0 1D0#000000000000000A
(1728571439.093620) vcan0 305#8008
(1728571439.096594) vcan0 166#D0320027
(1728571439.096661) vcan0 158#0000000000000028
(1728571439.096664) vcan0 161#000005500108002B
(1728571439.096666) vcan0 191#010090A1410012
(1728571439.096668) vcan0 133#00000000B6
(1728571439.096670) vcan0 136#0002000000000039
(1728571439.096689) vcan0 244#00000001E9
(1728571439.098171) vcan0 13A#0000000000000037
(1728571439.098179) vcan0 13F#000000050000003D
(1728571439.098181) vcan0 164#0000C01AA8000013
(1728571439.098183) vcan0 17C#0000000010000030
(1728571439.098184) vcan0 18E#00007A
(1728571439.098186) vcan0 294#040B0002CF5A002C
(1728571439.098188) vcan0 21E#03E8374522062F
(1728571439.100568) vcan0 183#0000000E0000103A
(1728571439.100649) vcan0 143#6B6B00FF
(1728571439.100664) vcan0 039#000C
(1728571439.105223) vcan0 095#800007F800000022
(1728571439.106652) vcan0 166#D0320036
(1728571439.107560) vcan0 158#0000000000000037
(1728571439.107571) vcan0 161#000005500108003A
(1728571439.107575) vcan0 191#010010A1410029
(1728571439.107579) vcan0 133#0000000089
(1728571439.107583) vcan0 136#000200000000000C
(1728571439.107587) vcan0 13A#000000000000000A
(1728571439.107591) vcan0 13F#0000000500000000
(1728571439.107597) vcan0 164#0000C01AA8000022
(1728571439.107603) vcan0 17C#0000000010000003
(1728571439.107609) vcan0 18E#00004D
(1728571439.108841) vcan0 1CF#80050000000F
(1728571439.109356) vcan0 1DC#0200000C
(1728571439.109367) vcan0 320#000003
(1728571439.109371) vcan0 324#7465000000000E0B
(1728571439.109376) vcan0 37C#FD00FD00097F000B
(1728571439.109381) vcan0 183#0000001200001008
(1728571439.111309) vcan0 244#00000001CB
(1728571439.111492) vcan0 143#6B6B00C2
(1728571439.112856) vcan0 095#800007F800000031
(1728571439.112870) vcan0 1A4#000000080000002F
(1728571439.112874) vcan0 039#001B
(1728571439.112878) vcan0 1AA#7FFF000000006720
(1728571439.112882) vcan0 1B0#000F0000000166
(1728571439.114749) vcan0 1D0#000000000000000A
(1728571439.114764) vcan0 166#D0320009
(1728571439.117221) vcan0 158#000000000000000A
(1728571439.117234) vcan0 161#000005500108000D
(1728571439.117237) vcan0 191#010010A1410038
(1728571439.117240) vcan0 133#0000000098
(1728571439.117244) vcan0 136#000200000000001B
(1728571439.117247) vcan0 13A#0000000000000019
(1728571439.117251) vcan0 13F#000000050000001F
(1728571439.117255) vcan0 164#0000C01AA8000031
(1728571439.118394) vcan0 17C#0000000010000012
(1728571439.118409) vcan0 18E#00005C
(1728571439.119676) vcan0 183#0000000D0000101D
(1728571439.119798) vcan0 143#6B6B00D1
(1728571439.122653) vcan0 244#000000014E
(1728571439.123521) vcan0 095#800007F800000004
(1728571439.124664) vcan0 166#D0320018
(1728571439.128574) vcan0 158#0000000000000019
(1728571439.128757) vcan0 161#000005500108001C
(1728571439.128769) vcan0 191#010010A141000B
(1728571439.128775) vcan0 164#0000C01AA8000004
(1728571439.128781) vcan0 133#00000000A7
(1728571439.128786) vcan0 136#000200000000002A
(1728571439.129426) vcan0 13A#0000000000000028
(1728571439.129614) vcan0 13F#000000050000002E
(1728571439.129624) vcan0 039#002A
(1728571439.129630) vcan0 17C#0000000010000021
(1728571439.129637) vcan0 18E#00006B
(1728571439.129643) vcan0 1CF#80050000001E
(1728571439.129650) vcan0 1DC#0200001B
(1728571439.129658) vcan0 183#0000000900001020
(1728571439.129667) vcan0 143#6B6B00E0
(1728571439.131910) vcan0 095#800007F400000017
(1728571439.133457) vcan0 1A4#000000080000003E
(1728571439.133482) vcan0 1AA#7FFF00000000683E
(1728571439.133489) vcan0 1B0#000F0000000175
(1728571439.133495) vcan0 1D0#000000000000000A
(1728571439.134628) vcan0 166#D0320027
(1728571439.136243) vcan0 244#00000001A2
(1728571439.136418) vcan0 158#0000000000000028
(1728571439.136424) vcan0 161#000005500108002B
(1728571439.136426) vcan0 191#010010A141001A
(1728571439.136427) vcan0 133#00000000B6
(1728571439.137730) vcan0 136#0002000000000039
(1728571439.137737) vcan0 13A#0000000000000037
(1728571439.137740) vcan0 13F#000000050000003D
(1728571439.137743) vcan0 164#0000C01AA8000013
(1728571439.137745) vcan0 17C#0000000010000030
(1728571439.137747) vcan0 18E#00007A
(1728571439.140886) vcan0 294#040B0002CF5A003B
(1728571439.140907) vcan0 21E#03E8374522063E
(1728571439.140932) vcan0 309#0000000000000093
(1728571439.140948) vcan0 183#0000000600001032
(1728571439.140963) vcan0 143#6B6B00FF
(1728571439.144172) vcan0 039#0039
(1728571439.144272) vcan0 095#800007F400000026
(1728571439.146085) vcan0 166#D0320036
(1728571439.146117) vcan0 158#0000000000000037
(1728571439.146125) vcan0 161#000005500108003A
(1728571439.146131) vcan0 191#010010A1410029
(1728571439.147636) vcan0 133#0000000089
(1728571439.147667) vcan0 136#000200000000000C
(1728571439.147675) vcan0 13A#000000000000000A
(1728571439.147681) vcan0 13F#0000000500000000
(1728571439.147688) vcan0 164#0000C01AA8000022
(1728571439.147696) vcan0 17C#0000000010000003
(1728571439.147702) vcan0 18E#00004D
(1728571439.150372) vcan0 1CF#80050000002D
(1728571439.150402) vcan0 1DC#0200002A
(1728571439.150408) vcan0 183#0000000C0000100F
(1728571439.150414) vcan0 143#6B6B00C2
(1728571439.151550) vcan0 244#0000000133
(1728571439.153269) vcan0 095#800007F400000035
(1728571439.154274) vcan0 1A4#0000000800000001
(1728571439.154414) vcan0 1AA#7FFF000000006801
(1728571439.154422) vcan0 1B0#000F0000000148
(1728571439.154429) vcan0 1D0#000000000000000A
(1728571439.154434) vcan0 166#D0320009
(1728571439.158615) vcan0 039#000C
(1728571439.158673) vcan0 158#000000000000000A
(1728571439.158705) vcan0 161#000005500108000D
(1728571439.158735) vcan0 191#010010A1410038
(1728571439.158763) vcan0 133#0000000098
(1728571439.159457) vcan0 136#000200000000001B
(1728571439.159475) vcan0 13A#0000000000000019
(1728571439.159482) vcan0 13F#000000050000001F
(1728571439.159490) vcan0 164#0000C01AA8000031
(1728571439.159496) vcan0 17C#0000000010000012
(1728571439.159501) vcan0 18E#00005C
(1728571439.159506) vcan0 183#0000001000001019
(1728571439.160886) vcan0 143#6B6B00D1
(1728571439.162758) vcan0 095#800007F400000008
(1728571439.164489) vcan0 166#D0320018
(1728571439.164933) vcan0 244#00000001F2
(1728571439.167226) vcan0 158#0000000000000019
(1728571439.167627) vcan0 161#000005500108001C
(1728571439.167633) vcan0 191#010010A141000B
(1728571439.167636) vcan0 133#00000000A7
(1728571439.167639) vcan0 136#000200000000002A
(1728571439.167641) vcan0 13A#0000000000000028
(1728571439.167643) vcan0 13F#000000050000002E
(1728571439.167645) vcan0 164#0000C01AA8000004
(1728571439.167648) vcan0 17C#0000000010000021
(1728571439.167650) vcan0 18E#00006B
(1728571439.169603) vcan0 1CF#80050000003C
(1728571439.169677) vcan0 1DC#02000039
(1728571439.169681) vcan0 183#0000000C0000102D
(1728571439.169684) vcan0 143#6B6B00E0
(1728571439.171674) vcan0 039#001B
(1728571439.172153) vcan0 095#800007F400000017
(1728571439.175589) vcan0 1A4#0000000800000010
(1728571439.175659) vcan0 1AA#7FFF000000006711
(1728571439.175662) vcan0 1B0#000F0000000157
(1728571439.175665) vcan0 1D0#000000000000000A
(1728571439.175667) vcan0 166#D0320027
(1728571439.175669) vcan0 158#0000000000000028
(1728571439.175691) vcan0 244#0000000133
(1728571439.177397) vcan0 161#000005500108002B
(1728571439.177458) vcan0 191#010010A141001A
(1728571439.177461) vcan0 133#00000000B6
(1728571439.177463) vcan0 136#0002000000000039
(1728571439.177464) vcan0 13A#0000000000000037
(1728571439.177466) vcan0 13F#000000050000003D
(1728571439.177468) vcan0 164#0000C01AA8000013
(1728571439.177470) vcan0 17C#0000000010000030
(1728571439.179147) vcan0 18E#00007A
(1728571439.179207) vcan0 294#040B0002CF5A000E
(1728571439.179211) vcan0 21E#03E83745220601
(1728571439.180414) vcan0 183#0000001000001037
(1728571439.180473) vcan0 143#6B6B00FF
(1728571439.183848) vcan0 095#800007F400000026
(1728571439.184583) vcan0 039#002A
(1728571439.184593) vcan0 166#D0320036
(1728571439.186812) vcan0 158#0000000000000037
(1728571439.187432) vcan0 161#000005500108003A
(1728571439.187439) vcan0 191#010010A1410029
(1728571439.187444) vcan0 133#0000000089
(1728571439.187448) vcan0 136#000200000000000C
(1728571439.187452) vcan0 13A#000000000000000A
(1728571439.187457) vcan0 13F#0000000500000000
(1728571439.187462) vcan0 164#0000C01AA8000022
(1728571439.187467) vcan0 17C#0000000010000003
(1728571439.187510) vcan0 244#0000000107
(1728571439.189279) vcan0 18E#00004D
(1728571439.189514) vcan0 1CF#80050000000F
(1728571439.189530) vcan0 1DC#0200000C
(1728571439.189538) vcan0 183#0000000C0000100F
(1728571439.192347) vcan0 143#6B6B00C2
(1728571439.193021) vcan0 333#0000000000001E
(1728571439.193538) vcan0 095#800007F400000035
(1728571439.193560) vcan0 1A4#000000080000002F
(1728571439.193624) vcan0 1AA#7FFF000000006720
(1728571439.193827) vcan0 1B0#000F0000000166
(1728571439.193850) vcan0 1D0#000000000000000A
(1728571439.195891) vcan0 166#D0320009
(1728571439.196362) vcan0 305#8017
(1728571439.196385) vcan0 158#000000000000000A
(1728571439.196403) vcan0 161#000005500108000D
(1728571439.196422) vcan0 191#010010A1410038
(1728571439.196441) vcan0 133#0000000098
(1728571439.196459) vcan0 136#000200000000001B
(1728571439.200883) vcan0 13A#0000000000000019
(1728571439.200911) vcan0 13F#000000050000001F
(1728571439.200922) vcan0 164#0000C01AA8000031
(1728571439.200929) vcan0 17C#0000000010000012
(1728571439.200936) vcan0 18E#00005C
(1728571439.200943) vcan0 183#0000000900001011
(1728571439.201616) vcan0 143#6B6B00D1
(1728571439.201755) vcan0 244#00000001A6
(1728571439.203277) vcan0 095#800007F400000008
(1728571439.203296) vcan0 039#0039
(1728571439.206826) vcan0 166#D0320018
(1728571439.207594) vcan0 158#0000000000000019
(1728571439.207602) vcan0 161#000005500108001C
(1728571439.207606) vcan0 191#010010A141000B
(1728571439.207610) vcan0 133#00000000A7
(1728571439.207613) vcan0 136#000200000000002A
(1728571439.207617) vcan0 13A#0000000000000028
(1728571439.207621) vcan0 13F#000000050000002E
(1728571439.207626) vcan0 164#0000C01AA8000004
(1728571439.207630) vcan0 17C#0000000010000021
(1728571439.207635) vcan0 18E#00006B
(1728571439.209458) vcan0 1CF#80050000001E
(1728571439.209665) vcan0 1DC#0200001B
(1728571439.209686) vcan0 320#000012
(1728571439.209700) vcan0 324#7465000000000E1A
(1728571439.209716) vcan0 37C#FD00FD00097F001A
(1728571439.209731) vcan0 40C#0236323239533039
(1728571439.209745) vcan0 183#0000000E0000102B
(1728571439.209759) vcan0 454#23EF36
(1728571439.209773) vcan0 143#6B6B00E0
(1728571439.212218) vcan0 095#800007F400000017
(1728571439.212341) vcan0 1A4#000000080000003E
(1728571439.215239) vcan0 244#00000001B9
(1728571439.215328) vcan0 1AA#7FFF00000000683E
(1728571439.215423) vcan0 1B0#000F0000000175
(1728571439.215428) vcan0 1D0#000000000000000A
(1728571439.215431) vcan0 166#D0320027
(1728571439.217551) vcan0 158#0000000000000028
(1728571439.217559) vcan0 039#000C
(1728571439.217561) vcan0 161#000005500108002B
(1728571439.217564) vcan0 191#010010A141001A
(1728571439.217566) vcan0 133#00000000B6
(1728571439.217569) vcan0 136#0002000000000039
(1728571439.217572) vcan0 13A#0000000000000037
(1728571439.217575) vcan0 13F#000000050000003D
(1728571439.217577) vcan0 164#0000C01AA8000013
(1728571439.217580) vcan0 17C#0000000010000030
(1728571439.219715) vcan0 18E#00007A
(1728571439.219724) vcan0 294#040B0002CF5A001D
(1728571439.219727) vcan0 21E#03E83745220610
(1728571439.219730) vcan0 183#0000000A0000103E
(1728571439.219733) vcan0 143#6B6B00FF
(1728571439.225216) vcan0 095#800007F400000026
(1728571439.225285) vcan0 166#D0320036
(1728571439.227163) vcan0 244#0000000192
(1728571439.227292) vcan0 158#0000000000000037
(1728571439.227298) vcan0 161#000005500108003A
(1728571439.227300) vcan0 191#010010A1410029
(1728571439.227302) vcan0 133#0000000089
(1728571439.227304) vcan0 136#000200000000000C
(1728571439.227306) vcan0 13A#000000000000000A
(1728571439.227308) vcan0 13F#0000000500000000
(1728571439.227310) vcan0 164#0000C01AA8000022
(1728571439.229487) vcan0 17C#0000000010000003
(1728571439.229740) vcan0 18E#00004D
(1728571439.229743) vcan0 1CF#80050000002D
(1728571439.229746) vcan0 1DC#0200002A
(1728571439.229748) vcan0 183#0000000700001004
(1728571439.229750) vcan0 143#6B6B00C2
(1728571439.233298) vcan0 095#800007F400000035
(1728571439.233477) vcan0 039#001B
(1728571439.233487) vcan0 1A4#0000000800000001
(1728571439.233497) vcan0 1AA#7FFF000000006801
(1728571439.233503) vcan0 1B0#000F0000000148
(1728571439.233509) vcan0 1D0#000000000000000A
(1728571439.235464) vcan0 166#D0320009
(1728571439.237611) vcan0 158#000000000000000A
(1728571439.237623) vcan0 161#000005500108000D
(1728571439.237627) vcan0 191#010010A1410038
(1728571439.237632) vcan0 133#0000000098
(1728571439.237637) vcan0 136#000200000000001B
(1728571439.237642) vcan0 13A#0000000000000019
(1728571439.237646) vcan0 13F#000000050000001F
(1728571439.237651) vcan0 164#0000C01AA8000031
(1728571439.237656) vcan0 17C#0000000010000012
(1728571439.237662) vcan0 18E#00005C
(1728571439.239438) vcan0 309#00000000000000A2
(1728571439.239455) vcan0 428#01040000521C01
(1728571439.239460) vcan0 405#000004000000000B
(1728571439.239466) vcan0 183#0000000D0000101D
(1728571439.240505) vcan0 244#00000001EF
(1728571439.241618) vcan0 143#6B6B00D1
(1728571439.245257) vcan0 095#800007F400000008
(1728571439.245370) vcan0 166#D0320018
(1728571439.247788) vcan0 158#0000000000000019
(1728571439.248185) vcan0 161#000005500108001C
(1728571439.248190) vcan0 191#010010A141000B
(1728571439.248193) vcan0 039#002A
(1728571439.248196) vcan0 133#00000000A7
(1728571439.248199) vcan0 136#000200000000002A
(1728571439.248201) vcan0 13A#0000000000000028
(1728571439.248204) vcan0 13F#000000050000002E
(1728571439.248207) vcan0 164#0000C01AA8000004
(1728571439.248211) vcan0 17C#0000000010000021
(1728571439.248215) vcan0 18E#00006B
(1728571439.248218) vcan0 1CF#80050000003C
(1728571439.248222) vcan0 1DC#02000039
(1728571439.250338) vcan0 183#0000000900001020
(1728571439.250435) vcan0 143#6B6B00E0
(1728571439.252730) vcan0 244#00000001CB
(1728571439.253307) vcan0 095#800007F400000017
(1728571439.253499) vcan0 1A4#0000000800000010
(1728571439.253508) vcan0 1AA#7FFF000000006711
(1728571439.253515) vcan0 1B0#000F0000000157
(1728571439.253522) vcan0 1D0#000000000000000A
(1728571439.257559) vcan0 166#D0320027
(1728571439.258591) vcan0 158#0000000000000028
(1728571439.258600) vcan0 161#000005500108002B
(1728571439.258605) vcan0 191#010010A141001A
(1728571439.258611) vcan0 133#00000000B6
(1728571439.258617) vcan0 136#0002000000000039
(1728571439.258623) vcan0 13A#0000000000000037
(1728571439.258629) vcan0 13F#000000050000003D
(1728571439.258772) vcan0 164#0000C01AA8000013
(1728571439.258780) vcan0 17C#0000000010000030
(1728571439.258785) vcan0 18E#00007A
(1728571439.258789) vcan0 294#040B0002CF5A002C
(1728571439.258794) vcan0 21E#03E8374522062F
(1728571439.259664) vcan0 188#00000000
(1728571439.260505) vcan0 183#0000000E0000103A
(1728571439.263261) vcan0 143#6B6B00FF
(1728571439.263270) vcan0 095#800007F400000026
(1728571439.263274) vcan0 5A1#960000000000623E
(1728571439.264437) vcan0 166#D0320036
(1728571439.265601) vcan0 244#00000001B3
(1728571439.266292) vcan0 158#0000000000000037
(1728571439.266307) vcan0 161#000005500108003A
(1728571439.266312) vcan0 191#010010A1410029
(1728571439.266316) vcan0 133#0000000089
(1728571439.266321) vcan0 039#0039
(1728571439.267690) vcan0 136#000200000000000C
(1728571439.268960) vcan0 13A#000000000000000A
(1728571439.268971) vcan0 13F#0000000500000000
(1728571439.268975) vcan0 164#0000C01AA8000022
(1728571439.268978) vcan0 17C#0000000010000003
(1728571439.268981) vcan0 18E#00004D
(1728571439.268985) vcan0 1CF#80050000000F
(1728571439.268988) vcan0 1DC#0200000C
(1728571439.268992) vcan0 183#0000000A00001001
(1728571439.269453) vcan0 2B6#7AC5700306CCFD4E
(1728571439.270356) vcan0 143#6B6B00C2
(1728571439.272159) vcan0 095#800007F400000035
(1728571439.272471) vcan0 1A4#000000080000002F
(1728571439.272574) vcan0 1AA#7FFF000000006720
(1728571439.273943) vcan0 1B0#000F0000000166
(1728571439.274257) vcan0 1D0#000000000000000A
(1728571439.274356) vcan0 166#D0320009
(1728571439.276893) vcan0 158#000000000000000A
(1728571439.277355) vcan0 244#000000016B
(1728571439.277454) vcan0 161#000005500108000D
(1728571439.277466) vcan0 191#010010A1410038
(1728571439.277475) vcan0 133#0000000098
(1728571439.277484) vcan0 136#000200000000001B
(1728571439.277492) vcan0 13A#0000000000000019
(1728571439.277501) vcan0 13F#000000050000001F
(1728571439.277509) vcan0 164#0000C01AA8000031
(1728571439.277518) vcan0 17C#0000000010000012
(1728571439.279359) vcan0 18E#00005C
(1728571439.281422) vcan0 183#0000000700001013
(1728571439.281514) vcan0 143#6B6B00D1
(1728571439.281525) vcan0 039#000C
(1728571439.283298) vcan0 095#800007F400000008
(1728571439.285233) vcan0 166#D0320018
(1728571439.286419) vcan0 158#0000000000000019
(1728571439.286551) vcan0 161#000005500108001C
(1728571439.286563) vcan0 191#010010A141000B
(1728571439.286571) vcan0 133#00000000A7
(1728571439.286579) vcan0 136#000200000000002A
(1728571439.287770) vcan0 13A#0000000000000028
(1728571439.287848) vcan0 13F#000000050000002E
(1728571439.287858) vcan0 164#0000C01AA8000004
(1728571439.287866) vcan0 17C#0000000010000021
(1728571439.287905) vcan0 18E#00006B
(1728571439.287914) vcan0 1CF#80050000001E
(1728571439.288856) vcan0 244#000000013F
(1728571439.289065) vcan0 1DC#0200001B
(1728571439.289435) vcan0 183#0000000500001024
(1728571439.290675) vcan0 143#6B6B00E0
(1728571439.290682) vcan0 333#0000000000002D
(1728571439.293979) vcan0 095#800007F400000017
(1728571439.294345) vcan0 1A4#000000080000003E
(1728571439.294567) vcan0 1AA#7FFF00000000683E
(1728571439.294648) vcan0 1B0#000F0000000175
(1728571439.294657) vcan0 1D0#000000000000000A
(1728571439.294665) vcan0 039#001B
(1728571439.294672) vcan0 166#D0320027
(1728571439.298141) vcan0 158#0000000000000028
(1728571439.298908) vcan0 161#000005500108002B
(1728571439.300732) vcan0 244#00000001CE
(1728571439.301693) vcan0 191#010010A141001A
(1728571439.301727) vcan0 133#00000000B6
(1728571439.301750) vcan0 136#0002000000000039
(1728571439.301773) vcan0 13A#0000000000000037
(1728571439.301796) vcan0 13F#000000050000003D
(1728571439.301820) vcan0 164#0000C01AA8000013
(1728571439.301844) vcan0 17C#0000000010000030
(1728571439.301867) vcan0 18E#00007A
(1728571439.301890) vcan0 294#040B0002CF5A003B
(1728571439.301913) vcan0 21E#03E8374522063E
(1728571439.301948) vcan0 183#0000000300001035
(1728571439.301973) vcan0 143#6B6B00FF
(1728571439.301996) vcan0 305#8026
(1728571439.302865) vcan0 095#800007F400000026
(1728571439.307426) vcan0 166#D0320036
(1728571439.307440) vcan0 158#0000000000000037
(1728571439.307444) vcan0 161#000005500108003A
(1728571439.307449) vcan0 191#010010A1410029
(1728571439.307453) vcan0 133#0000000089
(1728571439.307457) vcan0 136#000200000000000C
(1728571439.307461) vcan0 13A#000000000000000A
(1728571439.307465) vcan0 13F#0000000500000000
(1728571439.307469) vcan0 164#0000C01AA8000022
(1728571439.307474) vcan0 039#002A
(1728571439.309315) vcan0 17C#0000000010000003
(1728571439.309346) vcan0 18E#00004D
(1728571439.309363) vcan0 1CF#80050000002D
(1728571439.309378) vcan0 1DC#0200002A
(1728571439.309392) vcan0 320#000021
(1728571439.309804) vcan0 324#7465000000000E29
(1728571439.309826) vcan0 37C#FD00FD00097F0029
(1728571439.309840) vcan0 183#0000000A00001001
(1728571439.309855) vcan0 143#6B6B00C2
(1728571439.312010) vcan0 095#800007F400000035
(1728571439.312492) vcan0 1A4#0000000800000001
(1728571439.312509) vcan0 1AA#7FFF000000006801
(1728571439.313000) vcan0 244#0000000161
(1728571439.313943) vcan0 1B0#000F0000000148
(1728571439.313968) vcan0 1D0#000000000000000A
(1728571439.315498) vcan0 166#D0320009
(1728571439.316662) vcan0 158#000000000000000A
(1728571439.316710) vcan0 161#000005500108000D
(1728571439.316735) vcan0 191#010010A1410038
(1728571439.316757) vcan0 133#0000000098
(1728571439.316780) vcan0 136#000200000000001B
(1728571439.316802) vcan0 13A#0000000000000019
(1728571439.319855) vcan0 13F#000000050000001F
(1728571439.319912) vcan0 164#0000C01AA8000031
(1728571439.319935) vcan0 17C#0000000010000012
(1728571439.319954) vcan0 18E#00005C
(1728571439.319973) vcan0 183#0000000700001013
(1728571439.319991) vcan0 143#6B6B00D1
(1728571439.322987) vcan0 095#800007F400000008
(1728571439.325534) vcan0 244#00000001F2
(1728571439.326190) vcan0 166#D0320018
(1728571439.326209) vcan0 158#0000000000000019
(1728571439.326216) vcan0 161#000005500108001C
(1728571439.326223) vcan0 191#010010A141000B
(1728571439.326229) vcan0 133#00000000A7
(1728571439.333596) vcan0 136#000200000000002A
(1728571439.333716) vcan0 13A#0000000000000028
(1728571439.333723) vcan0 13F#000000050000002E
(1728571439.333727) vcan0 164#0000C01AA8000004
(1728571439.333733) vcan0 039#0039
(1728571439.333737) vcan0 17C#0000000010000021
(1728571439.333741) vcan0 18E#00006B
(1728571439.333744) vcan0 1CF#80050000003C
(1728571439.333749) vcan0 1DC#02000039
(1728571439.333754) vcan0 183#0000000500001024
(1728571439.333757) vcan0 143#6B6B00E0
(1728571439.333761) vcan0 095#800007F400000017
(1728571439.333764) vcan0 1A4#0000000800000010
(1728571439.333768) vcan0 1AA#7FFF000000006711
(1728571439.333771) vcan0 1B0#000F0000000157
(1728571439.333774) vcan0 1D0#000000000000000A
(1728571439.335310) vcan0 166#D0320027
(1728571439.337031) vcan0 158#0000000000000028
(1728571439.337050) vcan0 161#000005500108002B
(1728571439.337055) vcan0 191#010010A141001A
(1728571439.337060) vcan0 133#00000000B6
(1728571439.337064) vcan0 136#0002000000000039
(1728571439.337069) vcan0 13A#0000000000000037
(1728571439.337072) vcan0 13F#000000050000003D
(1728571439.338763) vcan0 164#0000C01AA8000013
(1728571439.338778) vcan0 17C#0000000010000030
(1728571439.338782) vcan0 18E#00007A
(1728571439.338784) vcan0 294#040B0002CF5A000E
(1728571439.338788) vcan0 21E#03E83745220601
(1728571439.338792) vcan0 309#00000000000000B1
(1728571439.338885) vcan0 244#00000001E9
(1728571439.340165) vcan0 183#0000000B0000103D
(1728571439.340180) vcan0 143#6B6B00FF
(1728571439.341404) vcan0 039#000C
(1728571439.344661) vcan0 095#800007F400000026
(1728571439.344693) vcan0 166#D0320036
(1728571439.348929) vcan0 158#0000000000000037
(1728571439.348952) vcan0 161#000005500108003A
(1728571439.348957) vcan0 191#010010A1410029
(1728571439.348961) vcan0 133#0000000089
(1728571439.348967) vcan0 136#000200000000000C
(1728571439.348972) vcan0 13A#000000000000000A
(1728571439.348977) vcan0 13F#0000000500000000
(1728571439.348982) vcan0 164#0000C01AA8000022
(1728571439.348987) vcan0 17C#0000000010000003
(1728571439.348993) vcan0 18E#00004D
(1728571439.348998) vcan0 1CF#80050000000F
(1728571439.349002) vcan0 1DC#0200000C
(1728571439.349007) vcan0 183#0000000800001003
(1728571439.350877) vcan0 143#6B6B00C2
(1728571439.352963) vcan0 095#800007F400000035
(1728571439.352982) vcan0 1A4#000000080000002F
(1728571439.352986) vcan0 1AA#7FFF000000006720
(1728571439.352990) vcan0 1B0#000F0000000166
(1728571439.352994) vcan0 1D0#000000000000000A
(1728571439.352950) vcan0 244#0000000123
(1728571439.354379) vcan0 166#D0320009
(1728571439.357264) vcan0 039#001B
(1728571439.357276) vcan0 158#000000000000000A
(1728571439.357279) vcan0 161#000005500108000D
(1728571439.357283) vcan0 191#010010A1410038
(1728571439.357287) vcan0 133#0000000098
(1728571439.357290) vcan0 136#000200000000001B
(1728571439.357293) vcan0 13A#0000000000000019
(1728571439.357296) vcan0 13F#000000050000001F
(1728571439.357299) vcan0 164#0000C01AA8000031
(1728571439.359384) vcan0 17C#0000000010000012
(1728571439.359433) vcan0 18E#00005C
(1728571439.359459) vcan0 183#0000000600001014
(1728571439.362428) vcan0 143#6B6B00D1
(1728571439.362467) vcan0 095#800007F400000008
(1728571439.364650) vcan0 244#0000000166
(1728571439.365351) vcan0 166#D0320018
(1728571439.366627) vcan0 158#0000000000000019
(1728571439.366640) vcan0 161#000005500108001C
(1728571439.366644) vcan0 191#010010A141000B
(1728571439.366647) vcan0 133#00000000A7
(1728571439.366650) vcan0 136#000200000000002A
(1728571439.369371) vcan0 13A#0000000000000028
(1728571439.369383) vcan0 13F#000000050000002E
(1728571439.369385) vcan0 164#0000C01AA8000004
(1728571439.369388) vcan0 17C#0000000010000021
(1728571439.369390) vcan0 18E#00006B
(1728571439.369392) vcan0 1CF#80050000001E
(1728571439.369395) vcan0 1DC#0200001B
(1728571439.369397) vcan0 183#0000000C0000102D
(1728571439.371877) vcan0 143#6B6B00E0
(1728571439.371888) vcan0 039#002A
(1728571439.371891) vcan0 095#800007F400000017
(1728571439.373122) vcan0 1A4#000000080000003E
(1728571439.373154) vcan0 1AA#7FFF00000000683E
(1728571439.373170) vcan0 1B0#000F0000000175
(1728571439.373180) vcan0 1D0#000000000000000A
(1728571439.376184) vcan0 166#D0320027
(1728571439.376194) vcan0 158#0000000000000028
(1728571439.376196) vcan0 161#000005500108002B
(1728571439.376197) vcan0 191#010010A141001A
(1728571439.376200) vcan0 133#00000000B6
(1728571439.376247) vcan0 244#00000001BD
(1728571439.377805) vcan0 136#0002000000000039
(1728571439.377868) vcan0 13A#0000000000000037
(1728571439.377871) vcan0 13F#000000050000003D
(1728571439.377873) vcan0 164#0000C01AA8000013
(1728571439.377876) vcan0 17C#0000000010000030
(1728571439.377878) vcan0 18E#00007A
(1728571439.377880) vcan0 294#040B0002CF5A001D
(1728571439.380204) vcan0 21E#03E83745220610
(1728571439.380271) vcan0 183#000000090000103F
(1728571439.380274) vcan0 143#6B6B00FF
(1728571439.383476) vcan0 095#800007F400000026
(1728571439.385807) vcan0 166#D0320036
(1728571439.385835) vcan0 158#0000000000000037
(1728571439.385841) vcan0 161#000005500108003A
(1728571439.389543) vcan0 191#010010A1410029
(1728571439.389572) vcan0 133#0000000089
(1728571439.389580) vcan0 136#000200000000000C
(1728571439.389589) vcan0 13A#000000000000000A
(1728571439.389597) vcan0 13F#0000000500000000
(1728571439.389609) vcan0 164#0000C01AA8000022
(1728571439.389622) vcan0 17C#0000000010000003
(1728571439.389816) vcan0 244#0000000135
(1728571439.390493) vcan0 18E#00004D
(1728571439.390668) vcan0 1CF#80050000002D
(1728571439.390677) vcan0 1DC#0200002A
(1728571439.390683) vcan0 183#0000000E0000100D
(1728571439.390689) vcan0 143#6B6B00C2
(1728571439.390694) vcan0 039#0039
(1728571439.390700) vcan0 333#0000000000003C
(1728571439.392084) vcan0 095#800007F400000035
(1728571439.392544) vcan0 1A4#0000000800000001
(1728571439.392552) vcan0 1AA#7FFF000000006801
(1728571439.394601) vcan0 1B0#000F0000000148
(1728571439.394619) vcan0 1D0#000000000000000A
(1728571439.394626) vcan0 166#D0320009
(1728571439.397067) vcan0 158#000000000000000A
(1728571439.397081) vcan0 161#000005500108000D
(1728571439.397085) vcan0 191#010010A1410038
(1728571439.397090) vcan0 133#0000000098
(1728571439.397095) vcan0 136#000200000000001B
(1728571439.398480) vcan0 13A#0000000000000019
(1728571439.398604) vcan0 13F#000000050000001F
(1728571439.398610) vcan0 164#0000C01AA8000031
(1728571439.398613) vcan0 17C#0000000010000012
(1728571439.398617) vcan0 18E#00005C
(1728571439.400292) vcan0 183#0000000A00001010
(1728571439.400410) vcan0 143#6B6B00D1
(1728571439.403038) vcan0 095#800007F400000008
(1728571439.403892) vcan0 305#8035
(1728571439.404730) vcan0 244#0000000109
(1728571439.405513) vcan0 166#D0320018
(1728571439.407408) vcan0 158#0000000000000019
(1728571439.407428) vcan0 161#000005500108001C
(1728571439.407433) vcan0 191#010090A1410003
(1728571439.407437) vcan0 133#00000000A7
(1728571439.407441) vcan0 136#000200000000002A
(1728571439.407445) vcan0 13A#0000000000000028
(1728571439.407449) vcan0 13F#000000050000002E
(1728571439.407454) vcan0 164#0000C01AA8000004
(1728571439.407459) vcan0 17C#0000000010000021
(1728571439.408878) vcan0 18E#00006B
(1728571439.408921) vcan0 1CF#80050000003C
(1728571439.408942) vcan0 1DC#02000039
(1728571439.408960) vcan0 320#000030
(1728571439.408978) vcan0 324#7465000000000E38
(1728571439.408995) vcan0 37C#FD00FD00097F0038
(1728571439.410353) vcan0 183#0000000F0000102A
(1728571439.410392) vcan0 143#6B6B00E0
(1728571439.411890) vcan0 039#000C
(1728571439.411930) vcan0 095#800007F400000017
(1728571439.414163) vcan0 1A4#0000000800000010
(1728571439.414298) vcan0 1AA#7FFF000000006711
(1728571439.414335) vcan0 1B0#000F0000000157
(1728571439.414363) vcan0 1D0#000000000000000A
(1728571439.414391) vcan0 166#D0320027
(1728571439.415857) vcan0 158#0000000000000028
(1728571439.415925) vcan0 244#000000016D
(1728571439.415949) vcan0 161#000005500108002B
(1728571439.416630) vcan0 191#010090A1410012
(1728571439.416643) vcan0 133#00000000B6
(1728571439.416646) vcan0 136#0002000000000039
(1728571439.417965) vcan0 13A#0000000000000037
(1728571439.417993) vcan0 13F#000000050000003D
(1728571439.418005) vcan0 164#0000C01AA8000013
(1728571439.418017) vcan0 17C#0000000010000030
(1728571439.418028) vcan0 18E#00007A
(1728571439.418033) vcan0 294#040B0002CF5A002C
(1728571439.419734) vcan0 21E#03E8374522062F
(1728571439.419782) vcan0 183#0000001300001034
(1728571439.419808) vcan0 143#6B6B00FF
(1728571439.426060) vcan0 095#800007F400000026
(1728571439.426152) vcan0 166#D0320036
(1728571439.426169) vcan0 039#001B
(1728571439.426175) vcan0 158#0000000000000037
(1728571439.426181) vcan0 161#000005500108003A
(1728571439.426186) vcan0 191#010090A1410021
(1728571439.426191) vcan0 133#0000000089
(1728571439.428235) vcan0 136#000200000000000C
(1728571439.428270) vcan0 13A#000000000000000A
(1728571439.428277) vcan0 13F#0000000500000000
(1728571439.428283) vcan0 164#0000C01AA8000022
(1728571439.428288) vcan0 17C#0000000010000003
(1728571439.428294) vcan0 18E#00004D
(1728571439.428300) vcan0 1CF#80050000000F
(1728571439.428307) vcan0 1DC#0200000C
(1728571439.431276) vcan0 183#0000000E0000100D
(1728571439.431308) vcan0 143#6B6B00C2
(1728571439.433253) vcan0 095#800007F400000035
(1728571439.433344) vcan0 244#00000001DA
(1728571439.434001) vcan0 1A4#000000080000002F
(1728571439.434017) vcan0 1AA#7FFF000000006720
(1728571439.434025) vcan0 1B0#000F0000000166
(1728571439.434031) vcan0 1D0#000000000000000A
(1728571439.445312) vcan0 244#0000000196
(1728571439.445446) vcan0 166#D0320009
(1728571439.445455) vcan0 158#000000000000000A
(1728571439.445460) vcan0 161#000005500108000D
(1728571439.445463) vcan0 191#010090A1410030
(1728571439.445466) vcan0 133#0000000098
(1728571439.445470) vcan0 136#000200000000001B
(1728571439.445473) vcan0 13A#0000000000000019
(1728571439.445477) vcan0 13F#000000050000001F
(1728571439.445480) vcan0 164#0000C01AA8000031
(1728571439.445484) vcan0 17C#0000000010000012
(1728571439.445490) vcan0 18E#00005C
(1728571439.445495) vcan0 309#0000000000000084
(1728571439.445498) vcan0 039#002A
(1728571439.445502) vcan0 183#0000000A00001010
(1728571439.445506) vcan0 143#6B6B00D1
(1728571439.445510) vcan0 095#800007F400000008
(1728571439.445514) vcan0 166#D0320018
(1728571439.448153) vcan0 158#0000000000000019
(1728571439.448266) vcan0 161#000005500108001C
(1728571439.448271) vcan0 191#010090A1410003
(1728571439.448274) vcan0 133#00000000A7
(1728571439.448277) vcan0 136#000200000000002A
(1728571439.448280) vcan0 13A#0000000000000028
(1728571439.448516) vcan0 13F#000000050000002E
(1728571439.448527) vcan0 164#0000C01AA8000004
(1728571439.448532) vcan0 17C#0000000010000021
(1728571439.448535) vcan0 18E#00006B
(1728571439.448538) vcan0 1CF#80050000001E
(1728571439.448542) vcan0 1DC#0200001B
(1728571439.450624) vcan0 183#0000000700001022
(1728571439.450835) vcan0 143#6B6B00E0
(1728571439.453547) vcan0 095#800007F400000017
(1728571439.455738) vcan0 1A4#000000080000003E
(1728571439.456356) vcan0 1AA#7FFF00000000683E
(1728571439.456379) vcan0 039#0039
(1728571439.456385) vcan0 1B0#000F0000000175
(1728571439.456392) vcan0 1D0#000000000000000A
(1728571439.456398) vcan0 166#D0320027
(1728571439.456403) vcan0 158#0000000000000028
(1728571439.456409) vcan0 161#000005500108002B
(1728571439.456415) vcan0 191#010090A1410012
(1728571439.456421) vcan0 133#00000000B6
(1728571439.456605) vcan0 244#0000000130
(1728571439.457841) vcan0 136#0002000000000039
(1728571439.457860) vcan0 13A#0000000000000037
(1728571439.457865) vcan0 13F#000000050000003D
(1728571439.457869) vcan0 164#0000C01AA8000013
(1728571439.457873) vcan0 17C#0000000010000030
(1728571439.457878) vcan0 18E#00007A
(1728571439.457882) vcan0 294#040B0002CF5A003B
(1728571439.460708) vcan0 21E#03E8374522063E
(1728571439.461535) vcan0 183#0000000D0000103B
(1728571439.461543) vcan0 143#6B6B00FF
(1728571439.463402) vcan0 095#800007F400000026
(1728571439.466217) vcan0 166#D0320036
(1728571439.466326) vcan0 158#0000000000000037
(1728571439.466332) vcan0 161#000005500108003A
(1728571439.466335) vcan0 191#010090A1410021
(1728571439.466339) vcan0 133#0000000089
(1728571439.467479) vcan0 136#000200000000000C
(1728571439.467588) vcan0 13A#000000000000000A
(1728571439.467592) vcan0 13F#0000000500000000
(1728571439.467596) vcan0 039#000C
(1728571439.467599) vcan0 164#0000C01AA8000022
(1728571439.467602) vcan0 17C#0000000010000003
(1728571439.468536) vcan0 244#00000001B7
(1728571439.468894) vcan0 18E#00004D
(1728571439.468977) vcan0 1CF#80050000002D
(1728571439.468982) vcan0 1DC#0200002A
(1728571439.468986) vcan0 183#0000001100001009
(1728571439.469843) vcan0 1BE#1241C71EB6
(1728571439.470209) vcan0 143#6B6B00C2
(1728571439.472219) vcan0 095#800007F400000035
(1728571439.472230) vcan0 1A4#0000000800000001
(1728571439.473607) vcan0 1AA#7FFF000000006801
(1728571439.473695) vcan0 1B0#000F0000000148
(1728571439.473700) vcan0 1D0#000000000000000A
(1728571439.475702) vcan0 166#D0320009
(1728571439.475714) vcan0 158#000000000000000A
(1728571439.480204) vcan0 161#000005500108000D
(1728571439.480214) vcan0 191#010090A1410030
(1728571439.480216) vcan0 133#0000000098
(1728571439.480218) vcan0 136#000200000000001B
(1728571439.480220) vcan0 13A#0000000000000019
(1728571439.480222) vcan0 13F#000000050000001F
(1728571439.480225) vcan0 164#0000C01AA8000031
(1728571439.480228) vcan0 17C#0000000010000012
(1728571439.480230) vcan0 18E#00005C
(1728571439.480234) vcan0 183#0000000C0000101E
(1728571439.480236) vcan0 143#6B6B00D1
(1728571439.483517) vcan0 039#001B
(1728571439.484134) vcan0 095#800007F400000008
(1728571439.485772) vcan0 166#D0320018
(1728571439.485811) vcan0 158#0000000000000019
(1728571439.485837) vcan0 161#000005500108001C
(1728571439.487900) vcan0 244#0000000182
(1728571439.488474) vcan0 191#010090A1410003
(1728571439.488487) vcan0 133#00000000A7
(1728571439.488494) vcan0 136#000200000000002A
(1728571439.488500) vcan0 13A#0000000000000028
(1728571439.488505) vcan0 13F#000000050000002E
(1728571439.488509) vcan0 164#0000C01AA8000004
(1728571439.488514) vcan0 17C#0000000010000021
(1728571439.488518) vcan0 18E#00006B
(1728571439.488522) vcan0 1CF#80050000003C
(1728571439.488526) vcan0 1DC#02000039
(1728571439.490343) vcan0 183#0000001000001028
(1728571439.490366) vcan0 143#6B6B00E0
(1728571439.492278) vcan0 333#0000000000000F
(1728571439.492293) vcan0 095#800007F400000017
(1728571439.492297) vcan0 1A4#0000000800000010
(1728571439.493536) vcan0 1AA#7FFF000000006711
(1728571439.493646) vcan0 1B0#000F0000000157
(1728571439.493653) vcan0 1D0#000000000000000A
(1728571439.494941) vcan0 039#002A
(1728571439.495780) vcan0 166#D0320027
(1728571439.495787) vcan0 158#0000000000000028
(1728571439.495792) vcan0 161#000005500108002B
(1728571439.497268) vcan0 191#010090A1410012
(1728571439.497285) vcan0 133#00000000B6
(1728571439.497289) vcan0 136#0002000000000039
(1728571439.497292) vcan0 13A#0000000000000037
(1728571439.497295) vcan0 13F#000000050000003D
(1728571439.497298) vcan0 164#0000C01AA8000013
(1728571439.498870) vcan0 17C#0000000010000030
(1728571439.498885) vcan0 18E#00007A
(1728571439.498889) vcan0 294#040B0002CF5A000E
(1728571439.499134) vcan0 21E#03E83745220601
(1728571439.499167) vcan0 244#0000000135
(1728571439.501497) vcan0 183#0000000C0000103C
(1728571439.501590) vcan0 143#6B6B00FF
(1728571439.504136) vcan0 095#800007F400000026
(1728571439.506265) vcan0 166#D0320036
(1728571439.506350) vcan0 158#0000000000000037
(1728571439.506354) vcan0 161#000005500108003A
(1728571439.506357) vcan0 191#010090A1410021
(1728571439.506359) vcan0 133#0000000089
(1728571439.508539) vcan0 136#000200000000000C
(1728571439.508713) vcan0 13A#000000000000000A
(1728571439.508723) vcan0 039#0039
(1728571439.508728) vcan0 13F#0000000500000000
(1728571439.508734) vcan0 164#0000C01AA8000022
(1728571439.508739) vcan0 17C#0000000010000003
(1728571439.508745) vcan0 18E#00004D
(1728571439.508752) vcan0 1CF#80050000000F
(1728571439.508760) vcan0 1DC#0200000C
(1728571439.508767) vcan0 305#8008
(1728571439.508772) vcan0 320#000003
(1728571439.508779) vcan0 324#7465000000000E0B
(1728571439.510318) vcan0 37C#FD00FD00097F000B
(1728571439.510508) vcan0 183#0000000900001002
(1728571439.510522) vcan0 40C#033133383439000D
(1728571439.510531) vcan0 454#23EF09
(1728571439.510538) vcan0 143#6B6B00C2
(1728571439.511408) vcan0 244#000000011F
(1728571439.512568) vcan0 095#800007F400000035
(1728571439.512588) vcan0 1A4#000000080000002F
(1728571439.512593) vcan0 1AA#7FFF000000006720
(1728571439.514690) vcan0 1B0#000F0000000166
(1728571439.514714) vcan0 1D0#000000000000000A
(1728571439.514721) vcan0 166#D0320009
(1728571439.516366) vcan0 158#000000000000000A
(1728571439.516513) vcan0 161#000005500108000D
(1728571439.516520) vcan0 191#010090A1410030
(1728571439.516525) vcan0 133#0000000098
(1728571439.516530) vcan0 136#000200000000001B
(1728571439.517892) vcan0 13A#0000000000000019
(1728571439.517909) vcan0 13F#000000050000001F
(1728571439.517913) vcan0 164#0000C01AA8000031
(1728571439.517917) vcan0 17C#0000000010000012
(1728571439.517921) vcan0 18E#00005C
(1728571439.519730) vcan0 183#0000000E0000101C
(1728571439.519750) vcan0 143#6B6B00D1
(1728571439.521592) vcan0 039#000C
(1728571439.524103) vcan0 244#00000001EC
(1728571439.524126) vcan0 095#800007F400000008
(1728571439.526282) vcan0 166#D0320018
(1728571439.526297) vcan0 158#0000000000000019
(1728571439.526301) vcan0 161#000005500108001C
(1728571439.526304) vcan0 191#010090A1410003
(1728571439.526308) vcan0 133#00000000A7
(1728571439.527859) vcan0 136#000200000000002A
(1728571439.527873) vcan0 13A#0000000000000028
(1728571439.527876) vcan0 13F#000000050000002E
(1728571439.527880) vcan0 164#0000C01AA8000004
(1728571439.527883) vcan0 17C#0000000010000021
(1728571439.527886) vcan0 18E#00006B
(1728571439.527889) vcan0 1CF#80050000001E
(1728571439.529409) vcan0 1DC#0200001B
(1728571439.529419) vcan0 183#0000000A0000102F
(1728571439.530670) vcan0 143#6B6B00E0
(1728571439.534173) vcan0 095#800007F400000017
(1728571439.534180) vcan0 1A4#000000080000003E
(1728571439.534185) vcan0 1AA#7FFF00000000683E
(1728571439.534250) vcan0 1B0#000F0000000175
(1728571439.534254) vcan0 1D0#000000000000000A
(1728571439.534991) vcan0 244#00000001F4
(1728571439.535328) vcan0 166#D0320027
(1728571439.537651) vcan0 158#0000000000000028
(1728571439.537657) vcan0 161#000005500108002B
(1728571439.537659) vcan0 191#010090A1410012
(1728571439.537661) vcan0 133#00000000B6
(1728571439.537664) vcan0 136#0002000000000039
(1728571439.537666) vcan0 13A#0000000000000037
(1728571439.537668) vcan0 039#001B
(1728571439.537671) vcan0 13F#000000050000003D
(1728571439.537673) vcan0 164#0000C01AA8000013
(1728571439.537675) vcan0 17C#0000000010000030
(1728571439.542121) vcan0 18E#00007A
(1728571439.542130) vcan0 294#040B0002CF5A001D
(1728571439.542132) vcan0 21E#03E83745220610
(1728571439.542134) vcan0 309#0000000000000093
(1728571439.542136) vcan0 428#01040000521C10
(1728571439.542138) vcan0 405#000004000000001A
(1728571439.542141) vcan0 183#0000000700001031
(1728571439.542143) vcan0 143#6B6B00FF
(1728571439.542145) vcan0 095#800007F400000026
(1728571439.545555) vcan0 166#D0320036
(1728571439.545567) vcan0 158#0000000000000037
(1728571439.546748) vcan0 161#000005500108003A
(1728571439.546817) vcan0 191#010090A1410021
(1728571439.546820) vcan0 133#0000000089
(1728571439.546822) vcan0 136#000200000000000C
(1728571439.546824) vcan0 13A#000000000000000A
(1728571439.547553) vcan0 244#000000016F
(1728571439.547879) vcan0 13F#0000000500000000
(1728571439.547888) vcan0 164#0000C01AA8000022
(1728571439.547890) vcan0 17C#0000000010000003
(1728571439.547892) vcan0 18E#00004D
(1728571439.547894) vcan0 1CF#80050000002D
(1728571439.549314) vcan0 1DC#0200002A
(1728571439.549322) vcan0 183#0000000D0000100E
(1728571439.550509) vcan0 143#6B6B00C2
(1728571439.551657) vcan0 039#002A
(1728571439.553178) vcan0 095#800007F400000035
(1728571439.553198) vcan0 1A4#0000000800000001
(1728571439.553207) vcan0 1AA#7FFF000000006801
(1728571439.553214) vcan0 1B0#000F0000000148
(1728571439.553222) vcan0 1D0#000000000000000A
(1728571439.554948) vcan0 166#D0320009
(1728571439.556525) vcan0 158#000000000000000A
(1728571439.556542) vcan0 161#000005500108000D
(1728571439.556551) vcan0 191#010090A1410030
(1728571439.556558) vcan0 133#0000000098
(1728571439.556565) vcan0 136#000200000000001B
(1728571439.557781) vcan0 13A#0000000000000019
(1728571439.557860) vcan0 13F#000000050000001F
(1728571439.557870) vcan0 164#0000C01AA9000030
(1728571439.557878) vcan0 17C#0000000010000012
(1728571439.557885) vcan0 18E#00005C
(1728571439.559161) vcan0 244#000000017C
(1728571439.560492) vcan0 183#0000000900001011
(1728571439.560499) vcan0 143#6B6B00D1
(1728571439.563413) vcan0 095#800007F400000008
(1728571439.565629) vcan0 166#D0320018
(1728571439.565720) vcan0 158#0000000000000019
(1728571439.567547) vcan0 161#000005500108001C
(1728571439.567644) vcan0 191#010090A1410003
(1728571439.567649) vcan0 133#00000000A7
(1728571439.567653) vcan0 136#000200000000002A
(1728571439.567656) vcan0 13A#0000000000000028
(1728571439.567659) vcan0 13F#000000050000002E
(1728571439.567662) vcan0 164#0000C01AA8000004
(1728571439.567668) vcan0 17C#0000000010000021
(1728571439.567673) vcan0 18E#00006B
(1728571439.568773) vcan0 1CF#80050000003C
(1728571439.568976) vcan0 1DC#02000039
(1728571439.568980) vcan0 183#0000000E0000102B
(1728571439.570327) vcan0 143#6B6B00E0
(1728571439.570336) vcan0 039#0039
(1728571439.570832) vcan0 244#0000000143
(1728571439.572852) vcan0 095#800007F400000017
(1728571439.572919) vcan0 1A4#0000000800000010
(1728571439.572923) vcan0 1AA#7FFF000000006711
(1728571439.572925) vcan0 1B0#000F0000000157
(1728571439.574710) vcan0 1D0#000000000000000A
(1728571439.574776) vcan0 166#D0320027
(1728571439.576153) vcan0 158#0000000000000028
(1728571439.576223) vcan0 161#000005500108002B
(1728571439.576226) vcan0 191#010090A1410012
(1728571439.576228) vcan0 133#00000000B6
(1728571439.577982) vcan0 136#0002000000000039
(1728571439.578713) vcan0 13A#0000000000000037
(1728571439.578728) vcan0 13F#000000050000003D
(1728571439.578733) vcan0 164#0000C01AA8000013
(1728571439.578739) vcan0 17C#0000000010000030
(1728571439.578747) vcan0 18E#00007A
(1728571439.578754) vcan0 294#040B0002CF5A002C
(1728571439.578760) vcan0 21E#03E8374522062F
(1728571439.580069) vcan0 183#0000000A0000103E
(1728571439.580806) vcan0 143#6B6B00FF
(1728571439.582997) vcan0 095#800007F400000026
(1728571439.583188) vcan0 244#0000000192
(1728571439.587003) vcan0 039#000C
(1728571439.587022) vcan0 166#D0320036
(1728571439.587027) vcan0 158#0000000000000037
(1728571439.587047) vcan0 161#000005500108003A
(1728571439.587050) vcan0 191#010090A1410021
(1728571439.587423) vcan0 133#0000000089
(1728571439.587437) vcan0 136#000200000000000C
(1728571439.587442) vcan0 13A#000000000000000A
(1728571439.587446) vcan0 13F#0000000500000000
(1728571439.587450) vcan0 164#0000C01AA8000022
(1728571439.587453) vcan0 17C#0000000010000003
(1728571439.588743) vcan0 18E#00004D
(1728571439.588760) vcan0 1CF#80050000000F
(1728571439.588765) vcan0 1DC#0200000C
(1728571439.590832) vcan0 183#0000000700001004
(1728571439.591266) vcan0 143#6B6B00C2
(1728571439.591383) vcan0 333#0000000000001E
(1728571439.592653) vcan0 095#800007F400000035
(1728571439.592756) vcan0 1A4#000000080000002F
(1728571439.592761) vcan0 1AA#7FFF000000006720
(1728571439.592764) vcan0 1B0#000F0000000166
(1728571439.594125) vcan0 1D0#000000000000000A
(1728571439.594186) vcan0 244#000000013D
(1728571439.596176) vcan0 166#D0320009
(1728571439.596190) vcan0 158#000000000000000A
(1728571439.596193) vcan0 161#000005500108000D
(1728571439.596196) vcan0 191#010090A1410030
(1728571439.596199) vcan0 133#0000000098
(1728571439.598645) vcan0 136#000200000000001B
(1728571439.599361) vcan0 13A#0000000000000019
(1728571439.599376) vcan0 13F#000000050000001F
(1728571439.599386) vcan0 164#0000C01AA8000031
(1728571439.599396) vcan0 039#001B
(1728571439.599405) vcan0 17C#0000000010000012
(1728571439.599415) vcan0 18E#00005C
(1728571439.599424) vcan0 183#0000000D0000101D
(1728571439.600580) vcan0 143#6B6B00D1
(1728571439.602671) vcan0 095#800007F400000008
(1728571439.604859) vcan0 166#D0320018
(1728571439.605657) vcan0 158#0000000000000019
(1728571439.607119) vcan0 244#0000000199
(1728571439.607862) vcan0 161#000005500108001C
(1728571439.607895) vcan0 191#010090A1410003
(1728571439.607915) vcan0 133#00000000A7
(1728571439.607932) vcan0 136#000200000000002A
(1728571439.607950) vcan0 13A#0000000000000028
(1728571439.607967) vcan0 13F#000000050000002E
(1728571439.607983) vcan0 164#0000C01AA8000004
(1728571439.608000) vcan0 17C#0000000010000021
(1728571439.608018) vcan0 18E#00006B
(1728571439.608036) vcan0 1CF#80050000001E
(1728571439.608053) vcan0 1DC#0200001B
(1728571439.610631) vcan0 320#000012
(1728571439.610675) vcan0 324#7465000000000E1A
(1728571439.610697) vcan0 37C#FD00FD00097F001A
(1728571439.610715) vcan0 183#0000000900001020
(1728571439.610732) vcan0 143#6B6B00E0
(1728571439.610749) vcan0 039#002A
(1728571439.610765) vcan0 305#8017
(1728571439.613529) vcan0 095#800007F400000017
(1728571439.613561) vcan0 1A4#000000080000003E
(1728571439.613614) vcan0 1AA#7FFF00000000683E
(1728571439.613632) vcan0 1B0#000F0000000175
(1728571439.613647) vcan0 1D0#000000000000000A
(1728571439.615371) vcan0 166#D0320027
(1728571439.618249) vcan0 158#0000000000000028
(1728571439.618349) vcan0 161#000005500108002B
(1728571439.618400) vcan0 191#010090A1410012
(1728571439.618448) vcan0 133#00000000B6
(1728571439.618561) vcan0 136#0002000000000039
(1728571439.618617) vcan0 13A#0000000000000037
(1728571439.618663) vcan0 13F#000000050000003D
(1728571439.618709) vcan0 164#0000C01AA8000013
(1728571439.618754) vcan0 17C#0000000010000030
(1728571439.618799) vcan0 18E#00007A
(1728571439.618846) vcan0 294#040B0002CF5A003B
(1728571439.618891) vcan0 21E#03E8374522063E
(1728571439.620301) vcan0 183#0000000E0000103A
(1728571439.620398) vcan0 143#6B6B00FF
(1728571439.622189) vcan0 095#800007F400000026
(1728571439.625387) vcan0 166#D0320036
(1728571439.625781) vcan0 158#0000000000000037
(1728571439.625834) vcan0 161#000005500108003A
(1728571439.626076) vcan0 244#0000000140
(1728571439.626891) vcan0 191#010090A1410021
(1728571439.627340) vcan0 039#0039
(1728571439.627359) vcan0 133#0000000089
(1728571439.627374) vcan0 136#000200000000000C
(1728571439.627388) vcan0 13A#000000000000000A
(1728571439.627402) vcan0 13F#0000000500000000
(1728571439.627415) vcan0 164#0000C01AA8000022
(1728571439.628723) vcan0 17C#0000000010000003
(1728571439.629260) vcan0 18E#00004D
(1728571439.630570) vcan0 1CF#80050000002D
(1728571439.630580) vcan0 1DC#0200002A
(1728571439.630584) vcan0 183#0000000A00001001
(1728571439.630590) vcan0 143#6B6B00C2
(1728571439.633297) vcan0 095#800007F400000035
(1728571439.633604) vcan0 1A4#0000000800000001
(1728571439.633609) vcan0 1AA#7FFF000000006801
(1728571439.633612) vcan0 1B0#000F0000000148
(1728571439.633616) vcan0 1D0#000000000000000A
(1728571439.636366) vcan0 166#D0320009
(1728571439.636467) vcan0 158#000000000000000A
(1728571439.636472) vcan0 161#000005500108000D
(1728571439.636474) vcan0 191#010090A1410030
(1728571439.636477) vcan0 133#0000000098
(1728571439.636480) vcan0 136#000200000000001B
(1728571439.637661) vcan0 244#00000001C9
(1728571439.637695) vcan0 13A#0000000000000019
(1728571439.637702) vcan0 13F#000000050000001F
(1728571439.637705) vcan0 164#0000C01AA8000031
(1728571439.637707) vcan0 17C#0000000010000012
(1728571439.637709) vcan0 18E#00005C
(1728571439.639154) vcan0 309#00000000000000A2
(1728571439.641741) vcan0 183#0000000700001013
(1728571439.642017) vcan0 143#6B6B00D1
(1728571439.642020) vcan0 039#000C
(1728571439.642023) vcan0 095#800007F400000008
(1728571439.644684) vcan0 166#D0320018
(1728571439.646711) vcan0 158#0000000000000019
(1728571439.646788) vcan0 161#000005500108001C
(1728571439.646792) vcan0 191#010090A1410003
(1728571439.646794) vcan0 133#00000000A7
(1728571439.646796) vcan0 136#000200000000002A
(1728571439.646798) vcan0 13A#0000000000000028
(1728571439.648635) vcan0 13F#000000050000002E
(1728571439.648704) vcan0 164#0000C01AA8000004
(1728571439.648707) vcan0 17C#0000000010000021
(1728571439.648709) vcan0 18E#00006B
(1728571439.648711) vcan0 1CF#80050000003C
(1728571439.648713) vcan0 1DC#02000039
(1728571439.649071) vcan0 244#0000000101
(1728571439.650316) vcan0 183#0000000500001024
(1728571439.650333) vcan0 143#6B6B00E0
(1728571439.654320) vcan0 095#800007F400000017
(1728571439.654572) vcan0 1A4#0000000800000010
(1728571439.654614) vcan0 1AA#7FFF000000006711
(1728571439.654641) vcan0 1B0#000F0000000157
(1728571439.654664) vcan0 1D0#000000000000000A
(1728571439.654687) vcan0 039#001B
(1728571439.654711) vcan0 166#D0320027
(1728571439.657231) vcan0 158#0000000000000028
(1728571439.657409) vcan0 161#000005500108002B
(1728571439.657417) vcan0 191#010090A1410012
(1728571439.657421) vcan0 133#00000000B6
(1728571439.657426) vcan0 136#0002000000000039
(1728571439.657430) vcan0 13A#0000000000000037
(1728571439.657434) vcan0 13F#000000050000003D
(1728571439.657440) vcan0 164#0000C01AA8000013
(1728571439.657444) vcan0 17C#0000000010000030
(1728571439.658682) vcan0 18E#00007A
(1728571439.659305) vcan0 294#040B0002CF5A000E
(1728571439.659439) vcan0 21E#03E83745220601
(1728571439.662056) vcan0 183#0000000300001035
(1728571439.662574) vcan0 143#6B6B00FF
(1728571439.662687) vcan0 095#800007F400000026
(1728571439.664379) vcan0 244#0000000190
(1728571439.665308) vcan0 166#D0320036
(1728571439.667371) vcan0 158#0000000000000037
(1728571439.667398) vcan0 161#000005500108003A
(1728571439.667411) vcan0 191#010090A1410021
(1728571439.667456) vcan0 133#0000000089
(1728571439.667471) vcan0 136#000200000000000C
(1728571439.667483) vcan0 13A#000000000000000A
(1728571439.667494) vcan0 13F#0000000500000000
(1728571439.667505) vcan0 164#0000C01AA8000022
(1728571439.667516) vcan0 17C#0000000010000003
(1728571439.669250) vcan0 18E#00004D
(1728571439.669379) vcan0 1CF#80050000000F
(1728571439.669388) vcan0 1DC#0200000C
(1728571439.669391) vcan0 183#0000000A00001001
(1728571439.669394) vcan0 039#002A
(1728571439.670203) vcan0 75E#E00A076C8D36847A
(1728571439.671303) vcan0 143#6B6B00C2
(1728571439.672438) vcan0 095#800007F400000035
(1728571439.672527) vcan0 1A4#000000080000002F
(1728571439.672531) vcan0 1AA#7FFF000000006720
(1728571439.676109) vcan0 1B0#000F0000000166
(1728571439.676402) vcan0 1D0#000000000000000A
(1728571439.676886) vcan0 166#D0320009
(1728571439.676891) vcan0 158#000000000000000A
(1728571439.676893) vcan0 161#000005500108000D
(1728571439.676895) vcan0 191#010090A1410030
(1728571439.676898) vcan0 133#0000000098
(1728571439.676900) vcan0 136#000200000000001B
(1728571439.676903) vcan0 13A#0000000000000019
(1728571439.676950) vcan0 244#0000000150
(1728571439.678247) vcan0 13F#000000050000001F
(1728571439.678256) vcan0 164#0000C01AA8000031
(1728571439.678258) vcan0 17C#0000000010000012
(1728571439.678260) vcan0 18E#00005C
(1728571439.681405) vcan0 183#0000000700001013
(1728571439.681483) vcan0 143#6B6B00D1
(1728571439.682578) vcan0 095#800007F400000008
(1728571439.682651) vcan0 039#0039
(1728571439.685288) vcan0 166#D0320018
(1728571439.687852) vcan0 244#00000001DD
(1728571439.688289) vcan0 158#0000000000000019
(1728571439.688294) vcan0 161#000005500108001C
(1728571439.688297) vcan0 191#010090A1410003
(1728571439.688298) vcan0 133#00000000A7
(1728571439.688300) vcan0 136#000200000000002A
(1728571439.688302) vcan0 13A#0000000000000028
(1728571439.688304) vcan0 13F#000000050000002E
(1728571439.688306) vcan0 164#0000C01AA8000004
(1728571439.688308) vcan0 17C#0000000010000021
(1728571439.688310) vcan0 18E#00006B
(1728571439.688312) vcan0 1CF#80050000001E
(1728571439.688316) vcan0 1DC#0200001B
(1728571439.689762) vcan0 183#0000000500001024
(1728571439.689847) vcan0 143#6B6B00E0
(1728571439.690933) vcan0 333#0000000000002D
(1728571439.692902) vcan0 095#800007F400000017
(1728571439.692979) vcan0 1A4#000000080000003E
(1728571439.692989) vcan0 1AA#7FFF00000000683E
(1728571439.692997) vcan0 1B0#000F0000000175
(1728571439.694871) vcan0 1D0#000000000000000A
(1728571439.695172) vcan0 166#D0320027
(1728571439.696910) vcan0 158#0000000000000028
(1728571439.696980) vcan0 161#000005500108002B
(1728571439.696990) vcan0 191#010090A1410012
(1728571439.696997) vcan0 133#00000000B6
(1728571439.697005) vcan0 136#0002000000000039
(1728571439.697012) vcan0 13A#0000000000000037
(1728571439.697019) vcan0 13F#000000050000003D
(1728571439.697212) vcan0 164#0000C01AA8000013
(1728571439.698549) vcan0 17C#0000000010000030
(1728571439.698635) vcan0 244#000000017A
(1728571439.698649) vcan0 18E#00007A
(1728571439.698660) vcan0 294#040B0002CF5A001D
(1728571439.698668) vcan0 21E#03E83745220610
(1728571439.700475) vcan0 183#0000000B0000103D
(1728571439.700493) vcan0 143#6B6B00FF
(1728571439.703381) vcan0 095#800007F400000026
(1728571439.703748) vcan0 039#000C
(1728571439.705385) vcan0 166#D0320036
(1728571439.707828) vcan0 158#0000000000000037
(1728571439.708267) vcan0 161#000005500108003A
(1728571439.708272) vcan0 191#010010A1410029
(1728571439.708274) vcan0 133#0000000089
(1728571439.708276) vcan0 136#000200000000000C
(1728571439.708278) vcan0 13A#000000000000000A
(1728571439.708280) vcan0 13F#0000000500000000
(1728571439.708282) vcan0 164#0000C01AA8000022
(1728571439.708284) vcan0 17C#0000000010000003
(1728571439.708286) vcan0 18E#00004D
(1728571439.708288) vcan0 1CF#80050000002D
(1728571439.708290) vcan0 1DC#0200002A
(1728571439.708292) vcan0 320#000021
(1728571439.709827) vcan0 324#7465000000000E29
(1728571439.710018) vcan0 37C#FD00FD00097F0029
(1728571439.710021) vcan0 183#0000000800001003
(1728571439.710023) vcan0 143#6B6B00C2
(1728571439.712922) vcan0 095#800007F400000035
(1728571439.712931) vcan0 1A4#0000000800000001
(1728571439.712933) vcan0 1AA#7FFF000000006801
(1728571439.712935) vcan0 1B0#000F0000000148
(1728571439.714148) vcan0 1D0#000000000000000A
(1728571439.719310) vcan0 244#000000014E
(1728571439.720529) vcan0 166#D0320009
(1728571439.720556) vcan0 158#000000000000000A
(1728571439.720565) vcan0 161#000005500108000D
(1728571439.720573) vcan0 039#001B
(1728571439.720583) vcan0 191#010010A1410038
(1728571439.720592) vcan0 133#0000000098
(1728571439.720600) vcan0 136#000200000000001B
(1728571439.720607) vcan0 13A#0000000000000019
(1728571439.720615) vcan0 13F#000000050000001F
(1728571439.720623) vcan0 164#0000C01AA8000031
(1728571439.720631) vcan0 17C#0000000010000012
(1728571439.720645) vcan0 18E#00005C
(1728571439.720652) vcan0 305#8026
(1728571439.720659) vcan0 183#0000000600001014
(1728571439.720666) vcan0 143#6B6B00D1
(1728571439.722639) vcan0 095#800007F400000008
(1728571439.725222) vcan0 166#D0320018
(1728571439.728888) vcan0 158#0000000000000019
(1728571439.729093) vcan0 161#000005500108001C
(1728571439.729125) vcan0 191#010010A141000B
(1728571439.729151) vcan0 133#00000000A7
(1728571439.729176) vcan0 136#000200000000002A
(1728571439.729201) vcan0 13A#0000000000000028
(1728571439.729783) vcan0 13F#000000050000002E
(1728571439.731461) vcan0 164#0000C01AA8000004
(1728571439.731480) vcan0 17C#0000000010000021
(1728571439.731486) vcan0 18E#00006B
(1728571439.731490) vcan0 1CF#80050000003C
(1728571439.731495) vcan0 1DC#02000039
(1728571439.731500) vcan0 183#0000000C0000102D
(1728571439.731504) vcan0 143#6B6B00E0
(1728571439.731511) vcan0 039#002A
(1728571439.733427) vcan0 095#800007F400000017
(1728571439.733584) vcan0 1A4#0000000800000010
(1728571439.733595) vcan0 1AA#7FFF000000006711
(1728571439.733599) vcan0 1B0#000F0000000157
(1728571439.733603) vcan0 1D0#000000000000000A
(1728571439.735503) vcan0 166#D0320027
(1728571439.735589) vcan0 244#00000001EB
(1728571439.736795) vcan0 158#0000000000000028
(1728571439.736813) vcan0 161#000005500108002B
(1728571439.736817) vcan0 191#010010A141001A
(1728571439.736821) vcan0 133#00000000B6
(1728571439.736824) vcan0 136#0002000000000039
(1728571439.736828) vcan0 13A#0000000000000037
(1728571439.739181) vcan0 13F#000000050000003D
(1728571439.739308) vcan0 164#0000C01AA8000013
(1728571439.739313) vcan0 17C#0000000010000030
(1728571439.739316) vcan0 18E#00007A
(1728571439.739319) vcan0 294#040B0002CF5A002C
(1728571439.739322) vcan0 21E#03E8374522062F
(1728571439.739326) vcan0 309#00000000000000B1
(1728571439.740761) vcan0 183#000000090000103F
(1728571439.740802) vcan0 143#6B6B00FF
(1728571439.743279) vcan0 095#800007F400000026
(1728571439.745274) vcan0 166#D0320036
(1728571439.746596) vcan0 158#0000000000000037
(1728571439.746611) vcan0 161#000005500108003A
(1728571439.746614) vcan0 191#010010A1410029
(1728571439.746616) vcan0 039#0039
(1728571439.746619) vcan0 133#0000000089
(1728571439.746622) vcan0 136#000200000000000C
(1728571439.749006) vcan0 244#0000000100
(1728571439.749307) vcan0 13A#000000000000000A
(1728571439.749380) vcan0 13F#0000000500000000
(1728571439.749383) vcan0 164#0000C01AA8000022
(1728571439.749385) vcan0 17C#0000000010000003
(1728571439.749388) vcan0 18E#00004D
(1728571439.749390) vcan0 1CF#80050000000F
(1728571439.749392) vcan0 1DC#0200000C
(1728571439.749396) vcan0 183#0000000E0000100D
(1728571439.752478) vcan0 143#6B6B00C2
(1728571439.752486) vcan0 095#800007F400000035
(1728571439.752488) vcan0 1A4#000000080000002F
(1728571439.752495) vcan0 1AA#7FFF000000006720
(1728571439.754143) vcan0 1B0#000F0000000166
(1728571439.754205) vcan0 1D0#000000000000000A
(1728571439.755303) vcan0 166#D0320009
(1728571439.756875) vcan0 158#000000000000000A
(1728571439.756908) vcan0 161#000005500108000D
(1728571439.756927) vcan0 191#010010A1410038
(1728571439.756944) vcan0 133#0000000098
(1728571439.756960) vcan0 136#000200000000001B
(1728571439.756976) vcan0 13A#0000000000000019
(1728571439.756991) vcan0 13F#000000050000001F
(1728571439.760654) vcan0 164#0000C01AA8000031
(1728571439.760729) vcan0 244#000000010E
(1728571439.761192) vcan0 17C#0000000010000012
(1728571439.761256) vcan0 18E#00005C
(1728571439.761259) vcan0 039#000C
(1728571439.761261) vcan0 183#0000000A00001010
(1728571439.761262) vcan0 143#6B6B00D1
(1728571439.761277) vcan0 188#00000000
(1728571439.762644) vcan0 095#800007F800000004
(1728571439.765318) vcan0 166#D0320018
(1728571439.768043) vcan0 158#0000000000000019
(1728571439.770799) vcan0 161#000005500108001C
(1728571439.770816) vcan0 191#010010A141000B
(1728571439.770823) vcan0 133#00000000A7
(1728571439.770828) vcan0 136#000200000000002A
(1728571439.770834) vcan0 13A#0000000000000028
(1728571439.770839) vcan0 13F#000000050000002E
(1728571439.770845) vcan0 164#0000C01AA8000004
(1728571439.770850) vcan0 17C#0000000010000021
(1728571439.770858) vcan0 18E#00006B
(1728571439.770865) vcan0 1CF#80050000001E
(1728571439.770871) vcan0 1DC#0200001B
(1728571439.770880) vcan0 183#0000000700001022
(1728571439.770888) vcan0 143#6B6B00E0
(1728571439.772841) vcan0 095#800007F800000013
(1728571439.772857) vcan0 1A4#000000080000003E
(1728571439.772862) vcan0 1AA#7FFF00000000683E
(1728571439.772866) vcan0 1B0#000F0000000175
(1728571439.774223) vcan0 244#000000016D
(1728571439.775077) vcan0 1D0#000000000000000A
(1728571439.775092) vcan0 166#D0320027
(1728571439.775097) vcan0 039#001B
(1728571439.777705) vcan0 158#0000000000000028
(1728571439.777717) vcan0 161#000005500108002B
(1728571439.777721) vcan0 191#010010A141001A
(1728571439.777726) vcan0 133#00000000B6
(1728571439.777730) vcan0 136#0002000000000039
(1728571439.777735) vcan0 13A#0000000000000037
(1728571439.777739) vcan0 13F#000000050000003D
(1728571439.777743) vcan0 164#0000C01AA8000013
(1728571439.777747) vcan0 17C#0000000010000030
(1728571439.777753) vcan0 18E#00007A
(1728571439.779112) vcan0 294#040B0002CF5A003B
(1728571439.779528) vcan0 21E#03E8374522063E
(1728571439.779540) vcan0 183#0000000D0000103B
(1728571439.780749) vcan0 143#6B6B00FF
(1728571439.782365) vcan0 095#800007F800000022
(1728571439.784794) vcan0 166#D0320036
(1728571439.784747) vcan0 244#00000001D9
(1728571439.786883) vcan0 158#0000000000000037
(1728571439.787372) vcan0 161#000005500108003A
(1728571439.787376) vcan0 191#010010A1410029
(1728571439.787379) vcan0 133#0000000089
(1728571439.787382) vcan0 136#000200000000000C
(1728571439.787451) vcan0 13A#000000000000000A
(1728571439.787456) vcan0 13F#0000000500000000
(1728571439.787459) vcan0 164#0000C01AA8000022
(1728571439.787461) vcan0 17C#0000000010000003
(1728571439.789310) vcan0 18E#00004D
(1728571439.789384) vcan0 1CF#80050000002D
(1728571439.789388) vcan0 1DC#0200002A
(1728571439.789391) vcan0 039#002A
(1728571439.789394) vcan0 183#0000000900001002
(1728571439.790615) vcan0 143#6B6B00C2
(1728571439.790756) vcan0 333#0000000000003C
(1728571439.793318) vcan0 095#800007F800000031
(1728571439.793384) vcan0 1A4#0000000800000001
(1728571439.793388) vcan0 1AA#7FFF000000006801
(1728571439.793390) vcan0 1B0#000F0000000148
(1728571439.793393) vcan0 1D0#000000000000000A
(1728571439.795736) vcan0 166#D0320009
(1728571439.796209) vcan0 158#000000000000000A
(1728571439.796214) vcan0 161#000005500108000D
(1728571439.796216) vcan0 191#010010A1410038
(1728571439.796219) vcan0 133#0000000098
(1728571439.796299) vcan0 244#00000001E0
(1728571439.797675) vcan0 136#000200000000001B
(1728571439.797681) vcan0 13A#0000000000000019
(1728571439.797684) vcan0 13F#000000050000001F
(1728571439.797686) vcan0 164#0000C01AA8000031
(1728571439.797688) vcan0 17C#0000000010000012
(1728571439.797691) vcan0 18E#00005C
(1728571439.799784) vcan0 183#0000000E0000101C
(1728571439.799842) vcan0 143#6B6B00D1
(1728571439.804362) vcan0 095#800007F800000004
(1728571439.804554) vcan0 166#D0320018
(1728571439.807595) vcan0 158#0000000000000019
(1728571439.808500) vcan0 161#000005500108001C
(1728571439.808510) vcan0 191#010010A141000B
(1728571439.808524) vcan0 133#00000000A7
(1728571439.808529) vcan0 136#000200000000002A
(1728571439.808534) vcan0 13A#0000000000000028
(1728571439.808540) vcan0 13F#000000050000002E
(1728571439.808545) vcan0 164#0000C01AA8000004
(1728571439.808550) vcan0 17C#0000000010000021
(1728571439.808555) vcan0 18E#00006B
(1728571439.808559) vcan0 1CF#80050000003C
(1728571439.808564) vcan0 039#0039
(1728571439.808573) vcan0 1DC#02000039
(1728571439.808579) vcan0 320#000030
(1728571439.808584) vcan0 324#7465000000000E38
(1728571439.809069) vcan0 244#0000000112
(1728571439.810445) vcan0 37C#FD00FD00097F0038
(1728571439.810457) vcan0 40C#0000000004000013
(1728571439.810462) vcan0 183#0000000A0000102F
(1728571439.810467) vcan0 454#23EF18
(1728571439.810472) vcan0 143#6B6B00E0
(1728571439.813400) vcan0 095#800007F800000013
(1728571439.813516) vcan0 1A4#0000000800000010
(1728571439.813522) vcan0 1AA#7FFF000000006711
(1728571439.813527) vcan0 1B0#000F0000000157
(1728571439.813531) vcan0 1D0#000000000000000A
(1728571439.817874) vcan0 166#D0320027
(1728571439.818002) vcan0 158#0000000000000028
(1728571439.818007) vcan0 161#000005500108002B
(1728571439.818011) vcan0 191#010010A141001A
(1728571439.818014) vcan0 133#00000000B6
(1728571439.818018) vcan0 136#0002000000000039
(1728571439.818022) vcan0 13A#0000000000000037
(1728571439.818024) vcan0 13F#000000050000003D
(1728571439.818027) vcan0 164#0000C01AA8000013
(1728571439.818030) vcan0 17C#0000000010000030
(1728571439.818033) vcan0 18E#00007A
(1728571439.818036) vcan0 294#040B0002CF5A000E
(1728571439.819274) vcan0 21E#03E83745220601
(1728571439.820495) vcan0 244#0000000161
(1728571439.820569) vcan0 183#0000000700001031
(1728571439.820579) vcan0 143#6B6B00FF
(1728571439.822898) vcan0 039#000C
(1728571439.822909) vcan0 305#8035
(1728571439.822912) vcan0 095#800007F800000022
(1728571439.824456) vcan0 166#D0320036
(1728571439.826476) vcan0 158#0000000000000037
(1728571439.826517) vcan0 161#000005500108003A
(1728571439.826539) vcan0 191#010010A1410029
(1728571439.826559) vcan0 133#0000000089
(1728571439.826578) vcan0 136#000200000000000C
(1728571439.829330) vcan0 13A#000000000000000A
(1728571439.829430) vcan0 13F#0000000500000000
(1728571439.829480) vcan0 164#0000C01AA8000022
(1728571439.829527) vcan0 17C#0000000010000003
(1728571439.829571) vcan0 18E#00004D
(1728571439.829634) vcan0 1CF#80050000000F
(1728571439.829702) vcan0 1DC#0200000C
(1728571439.829719) vcan0 183#0000000D0000100E
(1728571439.829725) vcan0 143#6B6B00C2
(1728571439.833994) vcan0 095#800007F800000031
(1728571439.834025) vcan0 1A4#000000080000002F
(1728571439.834031) vcan0 1AA#7FFF000000006720
(1728571439.834036) vcan0 1B0#000F0000000166
(1728571439.834042) vcan0 1D0#000000000000000A
(1728571439.834100) vcan0 244#00000001D7
(1728571439.837331) vcan0 166#D0320009
(1728571439.837387) vcan0 158#000000000000000A
(1728571439.837413) vcan0 161#000005500108000D
(1728571439.837436) vcan0 039#001B
(1728571439.837482) vcan0 191#010010A1410038
(1728571439.837510) vcan0 133#0000000098
(1728571439.837533) vcan0 136#000200000000001B
(1728571439.837568) vcan0 13A#0000000000000019
(1728571439.837594) vcan0 13F#000000050000001F
(1728571439.837627) vcan0 164#0000C01AA8000031
(1728571439.837653) vcan0 17C#0000000010000012
(1728571439.839139) vcan0 18E#00005C
(1728571439.839216) vcan0 309#0000000000000084
(1728571439.839246) vcan0 428#01040000521C2F
(1728571439.839269) vcan0 405#0000040000000029
(1728571439.841204) vcan0 183#0000000900001011
(1728571439.841270) vcan0 143#6B6B00D1
(1728571439.843319) vcan0 095#800007F800000004
(1728571439.845683) vcan0 166#D0320018
(1728571439.845728) vcan0 158#0000000000000019
(1728571439.847956) vcan0 244#0000000145
(1728571439.848264) vcan0 161#000005500108001C
(1728571439.848280) vcan0 191#010010A141000B
(1728571439.848286) vcan0 133#00000000A7
(1728571439.848292) vcan0 136#000200000000002A
(1728571439.848297) vcan0 13A#0000000000000028
(1728571439.848303) vcan0 13F#000000050000002E
(1728571439.848308) vcan0 164#0000C01AA8000004
(1728571439.848317) vcan0 17C#0000000010000021
(1728571439.848325) vcan0 18E#00006B
(1728571439.848330) vcan0 1CF#80050000001E
(1728571439.848336) vcan0 1DC#0200001B
(1728571439.854273) vcan0 183#0000000600001023
(1728571439.854293) vcan0 143#6B6B00E0
(1728571439.854298) vcan0 039#002A
(1728571439.854303) vcan0 095#800007F800000013
(1728571439.854316) vcan0 1A4#000000080000003E
(1728571439.860290) vcan0 166#D0320009
(1728571439.860307) vcan0 158#000000000000000A
(1728571439.860311) vcan0 161#000005500108000D
(1728571439.860315) vcan0 191#010090A1410030
(1728571439.860318) vcan0 18E#00005C
(1728571439.860322) vcan0 133#0000000098
(1728571439.860325) vcan0 136#000200000000001B
(1728571439.861614) vcan0 13A#0000000000000019
(1728571439.861633) vcan0 13F#000000050000001F
(1728571439.861636) vcan0 164#0000C01AA8000031
(1728571439.861640) vcan0 17C#0000000010000012
(1728571439.862999) vcan0 183#0000000E0000101C
(1728571439.864579) vcan0 039#000C
(1728571439.864593) vcan0 143#6B6B00D1
(1728571439.864614) vcan0 244#000000012F
(1728571439.865960) vcan0 095#800007F400000008
(1728571439.869686) vcan0 166#D0320018
(1728571439.869727) vcan0 158#0000000000000019
(1728571439.869734) vcan0 161#000005500108001C
(1728571439.869737) vcan0 191#010090A1410003
(1728571439.869739) vcan0 164#0000C01AA8000004
(1728571439.871658) vcan0 133#00000000A7
(1728571439.871670) vcan0 136#000200000000002A
(1728571439.871673) vcan0 13A#0000000000000028
(1728571439.871675) vcan0 13F#000000050000002E
(1728571439.871677) vcan0 17C#0000000010000021
(1728571439.871680) vcan0 18E#00006B
(1728571439.871682) vcan0 1CF#80050000003C
(1728571439.871685) vcan0 1DC#02000039
(1728571439.871687) vcan0 320#000030
(1728571439.871690) vcan0 324#7465000000000E38
(1728571439.873313) vcan0 183#0000000A0000102F
(1728571439.873324) vcan0 37C#FD00FD00097F0038
(1728571439.873326) vcan0 143#6B6B00E0
(1728571439.875978) vcan0 095#800007F400000017
(1728571439.876012) vcan0 1A4#0000000800000010
(1728571439.876030) vcan0 1AA#7FFF000000006810
(1728571439.877187) vcan0 244#00000001AA
(1728571439.877199) vcan0 1B0#000F0000000157
(1728571439.877203) vcan0 1D0#000000000000000A
(1728571439.877205) vcan0 039#001B
(1728571439.877557) vcan0 029#6386
(1728571439.878745) vcan0 166#D0320027
(1728571439.880006) vcan0 158#0000000000000028
(1728571439.880037) vcan0 161#000005500108002B
(1728571439.880054) vcan0 191#010090A1410012
(1728571439.880069) vcan0 164#0000C01AA8000013
(1728571439.880084) vcan0 133#00000000B6
(1728571439.881933) vcan0 136#0002000000000039
(1728571439.881964) vcan0 13A#0000000000000037
(1728571439.881980) vcan0 13F#000000050000003D
(1728571439.881995) vcan0 17C#0000000010000030
(1728571439.882010) vcan0 18E#00007A
(1728571439.882026) vcan0 294#040B0002CF5A000E
(1728571439.882040) vcan0 21E#03E83745220601
(1728571439.886391) vcan0 183#0000000F00001039
(1728571439.886433) vcan0 143#6B6B00FF
(1728571439.886451) vcan0 095#800007F400000026
(1728571439.890032) vcan0 166#D0320036
(1728571439.890156) vcan0 244#0000000164
(1728571439.890277) vcan0 158#0000000000000037
(1728571439.890305) vcan0 161#000005500108003A
(1728571439.890329) vcan0 164#0000C01AA8000022
(1728571439.890351) vcan0 191#010090A1410021
(1728571439.892486) vcan0 133#0000000089
(1728571439.893850) vcan0 136#000200000000000C
(1728571439.894027) vcan0 13A#000000000000000A
(1728571439.894035) vcan0 13F#0000000500000000
(1728571439.894041) vcan0 17C#0000000010000003
(1728571439.894046) vcan0 18E#00004D
(1728571439.894050) vcan0 1CF#80050000000F
(1728571439.894055) vcan0 1DC#0200000C
(1728571439.894062) vcan0 183#0000000B00001000
(1728571439.894067) vcan0 143#6B6B00C2
(1728571439.895567) vcan0 095#800007F400000035
(1728571439.897075) vcan0 1A4#000000080000002F
(1728571439.898471) vcan0 1AA#7FFF00000000682F
(1728571439.898482) vcan0 1B0#000F0000000166
(1728571439.898487) vcan0 1D0#000000000000000A
(1728571439.898492) vcan0 166#D0320009
(1728571439.899696) vcan0 158#000000000000000A
(1728571439.899713) vcan0 161#000005500108000D
(1728571439.899718) vcan0 191#010090A1410030
(1728571439.899722) vcan0 164#0000C01AA8000031
(1728571439.901862) vcan0 133#0000000098
(1728571439.901883) vcan0 136#000200000000001B
(1728571439.901887) vcan0 039#002A
(1728571439.901891) vcan0 13A#0000000000000019
(1728571439.901895) vcan0 13F#000000050000001F
(1728571439.901900) vcan0 17C#0000000010000012
(1728571439.901904) vcan0 18E#00005C
(1728571439.901908) vcan0 309#0000000000000084
(1728571439.902539) vcan0 244#0000000181
(1728571439.903151) vcan0 183#0000000800001012
(1728571439.904518) vcan0 143#6B6B00D1
(1728571439.906022) vcan0 095#800007F400000008
(1728571439.908059) vcan0 166#D0320018
(1728571439.910928) vcan0 158#0000000000000019
(1728571439.911552) vcan0 161#000005500108001C
(1728571439.911579) vcan0 191#010090A1410003
(1728571439.911587) vcan0 164#0000C01AA8000004
(1728571439.911593) vcan0 133#00000000A7
(1728571439.911599) vcan0 136#000200000000002A
(1728571439.911606) vcan0 13A#0000000000000028
(1728571439.911614) vcan0 13F#000000050000002E
(1728571439.911620) vcan0 17C#0000000010000021
(1728571439.911626) vcan0 18E#00006B
(1728571439.911631) vcan0 1CF#80050000001E
(1728571439.911638) vcan0 1DC#0200001B
(1728571439.913222) vcan0 183#0000000600001023
(1728571439.913375) vcan0 143#6B6B00E0
(1728571439.913383) vcan0 039#0039
(1728571439.913476) vcan0 244#00000001E5
(1728571439.915442) vcan0 095#800007F400000017
(1728571439.917333) vcan0 1A4#000000080000003E
(1728571439.917444) vcan0 1AA#7FFF00000000673F
(1728571439.917449) vcan0 1B0#000F0000000175
(1728571439.917454) vcan0 1D0#000000000000000A
(1728571439.918489) vcan0 166#D0320027
(1728571439.922010) vcan0 158#0000000000000028
(1728571439.922026) vcan0 161#000005500108002B
(1728571439.922029) vcan0 191#010090A1410012
(1728571439.922032) vcan0 164#0000C01AA8000013
(1728571439.922035) vcan0 133#00000000B6
(1728571439.922038) vcan0 136#0002000000000039
(1728571439.922041) vcan0 13A#0000000000000037
(1728571439.922044) vcan0 13F#000000050000003D
(1728571439.922047) vcan0 17C#0000000010000030
(1728571439.922051) vcan0 18E#00007A
(1728571439.922054) vcan0 294#040B0002CF5A001D
(1728571439.922058) vcan0 21E#03E83745220610
(1728571439.923985) vcan0 183#0000000400001034
(1728571439.924000) vcan0 143#6B6B00FF
(1728571439.926028) vcan0 095#800007F400000026
(1728571439.928522) vcan0 166#D0320036
(1728571439.928582) vcan0 039#000C
(1728571439.932432) vcan0 158#0000000000000037
(1728571439.932449) vcan0 161#000005500108003A
(1728571439.932452) vcan0 164#0000C01AA8000022
(1728571439.932454) vcan0 191#010090A1410021
(1728571439.932456) vcan0 133#0000000089
(1728571439.932458) vcan0 136#000200000000000C
(1728571439.932460) vcan0 13A#000000000000000A
(1728571439.932464) vcan0 13F#0000000500000000
(1728571439.932467) vcan0 17C#0000000010000003
(1728571439.932471) vcan0 18E#00004D
(1728571439.932473) vcan0 1CF#80050000002D
(1728571439.932475) vcan0 1DC#0200002A
(1728571439.932478) vcan0 183#0000000A00001001
(1728571439.933481) vcan0 244#000000016C
(1728571439.933864) vcan0 143#6B6B00C2
(1728571439.935418) vcan0 095#800007F400000035
(1728571439.936858) vcan0 1A4#0000000800000001
(1728571439.936893) vcan0 1AA#7FFF000000006702
(1728571439.936910) vcan0 1B0#000F0000000148
(1728571439.936925) vcan0 1D0#000000000000000A
(1728571439.938881) vcan0 166#D0320009
(1728571439.940818) vcan0 158#000000000000000A
(1728571439.940830) vcan0 161#000005500108000D
(1728571439.940833) vcan0 191#010090A1410030
(1728571439.940836) vcan0 164#0000C01AA8000031
(1728571439.940839) vcan0 133#0000000098
(1728571439.940840) vcan0 136#000200000000001B
(1728571439.940842) vcan0 13A#0000000000000019
(1728571439.940844) vcan0 13F#000000050000001F
(1728571439.943199) vcan0 17C#0000000010000012
(1728571439.943445) vcan0 18E#00005C
(1728571439.943449) vcan0 039#001B
(1728571439.943451) vcan0 183#0000000700001013
(1728571439.943454) vcan0 143#6B6B00D1
(1728571439.944885) vcan0 244#0000000111
(1728571439.944963) vcan0 095#800007F400000008
(1728571439.948075) vcan0 166#D0320018
(1728571439.950288) vcan0 158#0000000000000019
(1728571439.950362) vcan0 161#000005500108001C
(1728571439.950365) vcan0 191#010090A1410003
(1728571439.950367) vcan0 164#0000C01AA8000004
(1728571439.950369) vcan0 133#00000000A7
(1728571439.950371) vcan0 136#000200000000002A
(1728571439.950373) vcan0 13A#0000000000000028
(1728571439.952596) vcan0 13F#000000050000002E
(1728571439.952894) vcan0 17C#0000000010000021
(1728571439.952905) vcan0 18E#00006B
(1728571439.952910) vcan0 1CF#80050000003C
(1728571439.952916) vcan0 1DC#02000039
(1728571439.952922) vcan0 183#0000000500001024
(1728571439.954502) vcan0 143#6B6B00E0
(1728571439.955003) vcan0 333#0000000000000F
(1728571439.955013) vcan0 095#800007F400000017
(1728571439.956683) vcan0 244#0000000171
(1728571439.957352) vcan0 039#002A
(1728571439.957774) vcan0 1A4#0000000800000010
(1728571439.957782) vcan0 305#8017
(1728571439.957787) vcan0 1AA#7FFF000000006810
(1728571439.957791) vcan0 1B0#000F0000000157
(1728571439.957795) vcan0 1D0#000000000000000A
(1728571439.957799) vcan0 166#D0320027
(1728571439.960583) vcan0 158#0000000000000028
(1728571439.960612) vcan0 161#000005500108002B
(1728571439.960619) vcan0 191#010090A1410012
(1728571439.960625) vcan0 18E#00007A
(1728571439.960629) vcan0 133#00000000B6
(1728571439.960633) vcan0 136#0002000000000039
(1728571439.960638) vcan0 13A#0000000000000037
(1728571439.965820) vcan0 13F#000000050000003D
(1728571439.966219) vcan0 164#0000C01AA8000013
(1728571439.966226) vcan0 17C#0000000010000030
(1728571439.966230) vcan0 294#040B0002CF5A002C
(1728571439.966234) vcan0 21E#03E8374522062F
(1728571439.966237) vcan0 183#0000000B0000103D
(1728571439.966241) vcan0 143#6B6B00FF
(1728571439.966245) vcan0 095#800007F400000026
(1728571439.967624) vcan0 039#0039
(1728571439.967639) vcan0 166#D0320036
(1728571439.969108) vcan0 158#0000000000000037
(1728571439.969471) vcan0 161#000005500108003A
(1728571439.969568) vcan0 191#010010A1410029
(1728571439.971036) vcan0 244#0000000103
(1728571439.971832) vcan0 164#0000C01AA8000022
(1728571439.971841) vcan0 133#0000000089
(1728571439.971844) vcan0 136#000200000000000C
(1728571439.971847) vcan0 13A#000000000000000A
(1728571439.971850) vcan0 13F#0000000500000000
(1728571439.971854) vcan0 17C#0000000010000003
(1728571439.971857) vcan0 18E#00004D
(1728571439.971861) vcan0 1CF#80050000000F
(1728571439.971865) vcan0 1DC#0200000C
(1728571439.971868) vcan0 320#000003
(1728571439.971871) vcan0 183#0000000800001003
(1728571439.973024) vcan0 324#7465000000000E0B
(1728571439.973113) vcan0 37C#FD00FD00097F000B
(1728571439.975931) vcan0 143#6B6B00C2
(1728571439.976019) vcan0 095#800007F400000035
(1728571439.976024) vcan0 1A4#000000080000002F
(1728571439.976027) vcan0 1AA#7FFF00000000682F
(1728571439.978232) vcan0 1B0#000F0000000166
(1728571439.978242) vcan0 1D0#000000000000000A
(1728571439.978244) vcan0 166#D0320009
(1728571439.981681) vcan0 158#000000000000000A
(1728571439.981766) vcan0 161#000005500108000D
(1728571439.981770) vcan0 191#010010A1410038
(1728571439.981772) vcan0 18E#00005C
(1728571439.981775) vcan0 133#0000000098
(1728571439.981777) vcan0 136#000200000000001B
(1728571439.981971) vcan0 13A#0000000000000019
(1728571439.982669) vcan0 13F#000000050000001F
(1728571439.982744) vcan0 164#0000C01AA8000031
(1728571439.982747) vcan0 17C#0000000010000012
(1728571439.982749) vcan0 183#0000000600001014
(1728571439.982751) vcan0 039#000C
(1728571439.983732) vcan0 244#00000001F1
(1728571439.984206) vcan0 143#6B6B00D1
(1728571439.986132) vcan0 095#800007F400000008
(1728571439.989439) vcan0 166#D0320018
(1728571439.989464) vcan0 158#0000000000000019
(1728571439.989478) vcan0 161#000005500108001C
(1728571439.989488) vcan0 191#010010A141000B
(1728571439.990899) vcan0 164#0000C01AA8000004
(1728571439.991167) vcan0 133#00000000A7
(1728571439.991249) vcan0 136#000200000000002A
(1728571439.991261) vcan0 13A#0000000000000028
(1728571439.991264) vcan0 13F#000000050000002E
(1728571439.991267) vcan0 17C#0000000010000021
(1728571439.991270) vcan0 18E#00006B
(1728571439.991272) vcan0 1CF#80050000001E
(1728571439.993563) vcan0 1DC#0200001B
(1728571439.993830) vcan0 183#0000000400001025
(1728571439.993840) vcan0 143#6B6B00E0
(1728571439.996544) vcan0 095#800007F400000017
(1728571439.996766) vcan0 1A4#000000080000003E
(1728571439.996776) vcan0 039#001B
(1728571439.996782) vcan0 1AA#7FFF00000000673F
(1728571439.996788) vcan0 1B0#000F0000000175
(1728571439.996793) vcan0 1D0#000000000000000A
(1728571439.997624) vcan0 244#000000011E
(1728571439.999261) vcan0 166#D0320027
(1728571439.999283) vcan0 158#0000000000000028
(1728571439.999291) vcan0 161#000005500108002B
(1728571440.002695) vcan0 191#010010A141001A
(1728571440.002822) vcan0 164#0000C01AA8000013
(1728571440.002828) vcan0 133#00000000B6
(1728571440.002831) vcan0 136#0002000000000039
(1728571440.002835) vcan0 13A#0000000000000037
(1728571440.002838) vcan0 13F#000000050000003D
(1728571440.002841) vcan0 17C#0000000010000030
(1728571440.002847) vcan0 18E#00007A
(1728571440.002852) vcan0 294#040B0002CF5A003B
(1728571440.002856) vcan0 21E#03E8374522063E
(1728571440.002860) vcan0 309#0000000000000093
(1728571440.003184) vcan0 183#0000000300001035
(1728571440.003192) vcan0 143#6B6B00FF
(1728571440.004919) vcan0 095#800007F400000026
(1728571440.008603) vcan0 166#D0320036
(1728571440.010195) vcan0 158#0000000000000037
(1728571440.010210) vcan0 161#000005500108003A
(1728571440.010214) vcan0 039#002A
(1728571440.010224) vcan0 191#010010A1410029
(1728571440.010228) vcan0 164#0000C01AA8000022
(1728571440.010231) vcan0 133#0000000089
(1728571440.010234) vcan0 136#000200000000000C
(1728571440.010296) vcan0 244#00000001DD
(1728571440.013294) vcan0 13A#000000000000000A
(1728571440.013305) vcan0 13F#0000000500000000
(1728571440.013308) vcan0 17C#0000000010000003
(1728571440.013310) vcan0 18E#00004D
(1728571440.013312) vcan0 1CF#80050000002D
(1728571440.013315) vcan0 1DC#0200002A
(1728571440.013317) vcan0 183#0000000A00001001
(1728571440.013320) vcan0 143#6B6B00C2
(1728571440.014821) vcan0 095#800007F400000035
(1728571440.016145) vcan0 1A4#0000000800000001
(1728571440.016443) vcan0 1AA#7FFF000000006702
(1728571440.016480) vcan0 1B0#000F0000000148
(1728571440.016502) vcan0 1D0#000000000000000A
(1728571440.018839) vcan0 166#D0320009
(1728571440.022316) vcan0 158#000000000000000A
(1728571440.022341) vcan0 161#000005500108000D
(1728571440.022358) vcan0 191#010010A1410038
(1728571440.022373) vcan0 18E#00005C
(1728571440.022388) vcan0 133#0000000098
(1728571440.022403) vcan0 136#000200000000001B
(1728571440.022418) vcan0 13A#0000000000000019
(1728571440.022433) vcan0 13F#000000050000001F
(1728571440.022449) vcan0 164#0000C01AA8000031
(1728571440.022464) vcan0 17C#0000000010000012
(1728571440.022479) vcan0 183#0000000700001013
(1728571440.031767) vcan0 244#0000000127
(1728571440.032885) vcan0 143#6B6B00D1
(1728571440.032893) vcan0 095#800007F400000008
(1728571440.032895) vcan0 039#0039
(1728571440.032897) vcan0 166#D0320018
(1728571440.032899) vcan0 158#0000000000000019
(1728571440.032901) vcan0 161#000005500108001C
(1728571440.032903) vcan0 191#010010A141000B
(1728571440.032906) vcan0 164#0000C01AA8000004
(1728571440.032908) vcan0 133#00000000A7
(1728571440.032910) vcan0 136#000200000000002A
(1728571440.032912) vcan0 13A#0000000000000028
(1728571440.032914) vcan0 13F#000000050000002E
(1728571440.032917) vcan0 17C#0000000010000021
(1728571440.032919) vcan0 18E#00006B
(1728571440.032923) vcan0 1CF#80050000003C
(1728571440.032925) vcan0 1DC#02000039
(1728571440.032927) vcan0 183#0000000500001024
(1728571440.035378) vcan0 143#6B6B00E0
(1728571440.035388) vcan0 095#800007F400000017
(1728571440.036619) vcan0 1A4#0000000800000010
(1728571440.036637) vcan0 1AA#7FFF000000006810
(1728571440.036647) vcan0 1B0#000F0000000157
(1728571440.036655) vcan0 1D0#000000000000000A
(1728571440.038541) vcan0 166#D0320027
(1728571440.038567) vcan0 039#000C
(1728571440.041016) vcan0 158#0000000000000028
(1728571440.041061) vcan0 161#000005500108002B
(1728571440.041080) vcan0 191#010010A141001A
(1728571440.041099) vcan0 164#0000C01AA8000013
(1728571440.041115) vcan0 133#00000000B6
(1728571440.041132) vcan0 136#0002000000000039
(1728571440.041148) vcan0 13A#0000000000000037
(1728571440.041165) vcan0 13F#000000050000003D
(1728571440.041181) vcan0 17C#0000000010000030
(1728571440.041198) vcan0 18E#00007A
(1728571440.043852) vcan0 294#040B0002CF5A000E
(1728571440.043888) vcan0 21E#03E83745220601
(1728571440.043906) vcan0 183#0000000300001035
(1728571440.043922) vcan0 143#6B6B00FF
(1728571440.045235) vcan0 095#800007F400000026
(1728571440.047344) vcan0 244#00000001FB
(1728571440.049153) vcan0 166#D0320036
(1728571440.049180) vcan0 158#0000000000000037
(1728571440.049184) vcan0 161#000005500108003A
(1728571440.050603) vcan0 191#010010A1410029
(1728571440.050771) vcan0 18E#00004D
(1728571440.050776) vcan0 133#0000000089
(1728571440.050778) vcan0 136#000200000000000C
(1728571440.050780) vcan0 13A#000000000000000A
(1728571440.050784) vcan0 13F#0000000500000000
(1728571440.054269) vcan0 164#0000C01AA8000022
(1728571440.054284) vcan0 17C#0000000010000003
(1728571440.054286) vcan0 1CF#80050000000F
(1728571440.054289) vcan0 1DC#0200000C
(1728571440.054291) vcan0 183#0000000200001009
(1728571440.054293) vcan0 143#6B6B00C2
(1728571440.054296) vcan0 333#0000000000001E
(1728571440.056150) vcan0 095#800007F400000035
(1728571440.056184) vcan0 1A4#000000080000002F
(1728571440.056202) vcan0 1AA#7FFF00000000682F
(1728571440.056217) vcan0 1B0#000F0000000166
(1728571440.061672) vcan0 039#001B
(1728571440.061884) vcan0 1D0#000000000000000A
(1728571440.062090) vcan0 305#8026
(1728571440.062138) vcan0 166#D0320009
(1728571440.062175) vcan0 158#000000000000000A
(1728571440.062210) vcan0 161#000005500108000D
(1728571440.062253) vcan0 191#010010A1410038
(1728571440.062291) vcan0 18E#00005C
(1728571440.062327) vcan0 133#0000000098
(1728571440.062361) vcan0 136#000200000000001B
(1728571440.062397) vcan0 13A#0000000000000019
(1728571440.062431) vcan0 13F#000000050000001F
(1728571440.062442) vcan0 164#0000C01AA8000031
(1728571440.062446) vcan0 17C#0000000010000012
(1728571440.062451) vcan0 183#0000000900001011
(1728571440.063679) vcan0 143#6B6B00D1
(1728571440.065615) vcan0 095#800007F400000008
(1728571440.066396) vcan0 244#00000001C3
(1728571440.070053) vcan0 166#D0320018
(1728571440.072375) vcan0 158#0000000000000019
(1728571440.072476) vcan0 161#000005500108001C
(1728571440.072481) vcan0 191#010010A141000B
(1728571440.072484) vcan0 164#0000C01AA8000004
(1728571440.072487) vcan0 133#00000000A7
(1728571440.072490) vcan0 136#000200000000002A
(1728571440.072492) vcan0 13A#0000000000000028
(1728571440.072496) vcan0 13F#000000050000002E
(1728571440.072499) vcan0 17C#0000000010000021
(1728571440.072502) vcan0 18E#00006B
(1728571440.072505) vcan0 1CF#80050000001E
(1728571440.072509) vcan0 039#002A
(1728571440.072512) vcan0 1DC#0200001B
(1728571440.072515) vcan0 320#000012
(1728571440.072519) vcan0 183#0000000600001023
(1728571440.072523) vcan0 324#7465000000000E1A
(1728571440.072527) vcan0 37C#FD00FD00097F001A
(1728571440.074221) vcan0 40C#0236323239533039
(1728571440.074232) vcan0 454#23EF36
(1728571440.074237) vcan0 143#6B6B00E0
(1728571440.075831) vcan0 095#800007F400000017
(1728571440.075842) vcan0 1A4#000000080000003E
(1728571440.077917) vcan0 1AA#7FFF00000000673F
(1728571440.078201) vcan0 1B0#000F0000000175
(1728571440.078207) vcan0 1D0#000000000000000A
(1728571440.078210) vcan0 166#D0320027
(1728571440.078438) vcan0 081#8D7B112F5C407C59
(1728571440.078722) vcan0 244#0000000144
(1728571440.079536) vcan0 158#0000000000000028
(1728571440.079545) vcan0 161#000005500108002B
(1728571440.079547) vcan0 191#010010A141001A
(1728571440.081333) vcan0 133#00000000B6
(1728571440.081345) vcan0 136#0002000000000039
(1728571440.081348) vcan0 13A#0000000000000037
(1728571440.081351) vcan0 13F#000000050000003D
(1728571440.081354) vcan0 164#0000C01AA8000013
(1728571440.081356) vcan0 17C#0000000010000030
(1728571440.081358) vcan0 18E#00007A
(1728571440.082799) vcan0 294#040B0002CF5A001D
(1728571440.082811) vcan0 21E#03E83745220610
(1728571440.082813) vcan0 183#0000000400001034
(1728571440.084370) vcan0 143#6B6B00FF
(1728571440.087152) vcan0 095#800007F400000026
(1728571440.087162) vcan0 039#0039
(1728571440.088704) vcan0 166#D0320036
(1728571440.090151) vcan0 158#0000000000000037
(1728571440.090296) vcan0 161#000005500108003A
(1728571440.090300) vcan0 191#010010A1410029
(1728571440.090303) vcan0 164#0000C01AA8000022
(1728571440.090305) vcan0 133#0000000089
(1728571440.090307) vcan0 136#000200000000000C
(1728571440.090309) vcan0 13A#000000000000000A
(1728571440.093530) vcan0 244#0000000127
(1728571440.094849) vcan0 13F#0000000500000000
(1728571440.094867) vcan0 17C#0000000010000003
(1728571440.094874) vcan0 18E#00004D
(1728571440.094884) vcan0 1CF#80050000002D
(1728571440.094891) vcan0 1DC#0200002A
(1728571440.094897) vcan0 183#0000000A00001001
(1728571440.094903) vcan0 143#6B6B00C2
(1728571440.094910) vcan0 095#800007F400000035
(1728571440.098355) vcan0 1A4#0000000800000001
(1728571440.098371) vcan0 1AA#7FFF000000006702
(1728571440.098378) vcan0 1B0#000F0000000148
(1728571440.098382) vcan0 1D0#000000000000000A
(1728571440.098388) vcan0 166#D0320009
(1728571440.101834) vcan0 158#000000000000000A
(1728571440.101848) vcan0 161#000005500108000D
(1728571440.101853) vcan0 039#000C
(1728571440.101857) vcan0 191#010010A1410038
(1728571440.101862) vcan0 164#0000C01AA8000031
(1728571440.101868) vcan0 133#0000000098
(1728571440.101873) vcan0 136#000200000000001B
(1728571440.101882) vcan0 13A#0000000000000019
(1728571440.101886) vcan0 13F#000000050000001F
(1728571440.101890) vcan0 17C#0000000010000012
(1728571440.101894) vcan0 18E#00005C
(1728571440.101901) vcan0 309#00000000000000A2
(1728571440.101905) vcan0 428#01040000521C01
(1728571440.101909) vcan0 405#000004000000000B
(1728571440.103326) vcan0 183#0000000700001013
(1728571440.103336) vcan0 143#6B6B00D1
(1728571440.106628) vcan0 095#800007F400000008
(1728571440.108163) vcan0 244#00000001B0
(1728571440.108436) vcan0 166#D0320018
(1728571440.110040) vcan0 158#0000000000000019
(1728571440.110147) vcan0 161#000005500108001C
(1728571440.110153) vcan0 191#010010A141000B
(1728571440.110156) vcan0 164#0000C01AA8000004
(1728571440.110158) vcan0 133#00000000A7
(1728571440.110161) vcan0 136#000200000000002A
(1728571440.111876) vcan0 13A#0000000000000028
(1728571440.112233) vcan0 13F#000000050000002E
(1728571440.112316) vcan0 17C#0000000010000021
